Time [s],Packet ID,MOSI,MISO
6.8434262500,0,0xAC,0xE9
6.8444904000,0,0x53,0x72
6.8456048500,0,0x00,0x53
6.8466717000,0,0x00,0x00
6.8583836500,0,0x30,0x00
6.8594399000,0,0x00,0x30
6.8605444000,0,0x00,0x00
6.8616072500,0,0x00,0x1E
6.8633885000,0,0x30,0x00
6.8644372500,0,0x00,0x30
6.8654988500,0,0x01,0x00
6.8665444500,0,0x00,0x94
6.8682129000,0,0x30,0x00
6.8692429000,0,0x00,0x30
6.8703470000,0,0x02,0x00
6.8713763500,0,0x00,0x06
6.8736581000,0,0xAC,0x00
6.8747365500,0,0x80,0xAC
6.8757977000,0,0x00,0x80
6.8768643000,0,0x00,0x00
6.9899111500,0,0xAC,0xB6
6.9909932500,0,0x53,0x8C
6.9921131000,0,0x00,0x53
6.9931586500,0,0x00,0x00
6.9964043500,0,0x20,0x00
6.9974839500,0,0x00,0x20
6.9985242000,0,0x40,0x00
6.9996070000,0,0x00,0xFF
7.0006941000,0,0x28,0x00
7.0018040000,0,0x00,0x28
7.0028710000,0,0x40,0x00
7.0039271000,0,0x00,0xFF
7.0050087000,0,0x20,0x00
7.0061000500,0,0x00,0x20
7.0071697000,0,0x41,0x00
7.0082363000,0,0x00,0xFF
7.0093585000,0,0x28,0x00
7.0104333500,0,0x00,0x28
7.0115377500,0,0x41,0x00
7.0126098500,0,0x00,0xFF
7.0136913500,0,0x20,0x00
7.0147960500,0,0x00,0x20
7.0158736500,0,0x42,0x00
7.0169734000,0,0x00,0xFF
7.0180570000,0,0x28,0x00
7.0191669000,0,0x00,0x28
7.0201992500,0,0x42,0x00
7.0212886000,0,0x00,0xFF
7.0223636000,0,0x20,0x00
7.0234307000,0,0x00,0x20
7.0245454000,0,0x43,0x00
7.0256180500,0,0x00,0xFF
7.0267452500,0,0x28,0x00
7.0278572500,0,0x00,0x28
7.0289297000,0,0x43,0x00
7.0300313500,0,0x00,0xFF
7.0313895500,0,0x20,0x00
7.0324816500,0,0x00,0x20
7.0335484000,0,0x44,0x00
7.0346187500,0,0x00,0xFF
7.0357371500,0,0x28,0x00
7.0368068500,0,0x00,0x28
7.0379088500,0,0x44,0x00
7.0389833000,0,0x00,0xFF
7.0400681500,0,0x20,0x00
7.0411669500,0,0x00,0x20
7.0422366500,0,0x45,0x00
7.0433035000,0,0x00,0xFF
7.0443800000,0,0x28,0x00
7.0454844500,0,0x00,0x28
7.0465462000,0,0x45,0x00
7.0476084500,0,0x00,0xFF
7.0486891500,0,0x20,0x00
7.0498150500,0,0x00,0x20
7.0509141500,0,0x46,0x00
7.0519386500,0,0x00,0xFF
7.0530496000,0,0x28,0x00
7.0541645000,0,0x00,0x28
7.0552396000,0,0x46,0x00
7.0563008000,0,0x00,0xFF
7.0573824500,0,0x20,0x00
7.0584496500,0,0x00,0x20
7.0595457500,0,0x47,0x00
7.0606475500,0,0x00,0xFF
7.0617455000,0,0x28,0x00
7.0628122500,0,0x00,0x28
7.0639113500,0,0x47,0x00
7.0649357000,0,0x00,0xFF
7.0663564500,0,0x20,0x00
7.0674256500,0,0x00,0x20
7.0684875500,0,0x48,0x00
7.0695491500,0,0x00,0xFF
7.0706709000,0,0x28,0x00
7.0717406000,0,0x00,0x28
7.0728023500,0,0x48,0x00
7.0739097000,0,0x00,0xFF
7.0750392000,0,0x20,0x00
7.0761086500,0,0x00,0x20
7.0772160500,0,0x49,0x00
7.0782958500,0,0x00,0xFF
7.0794094000,0,0x28,0x00
7.0804926000,0,0x00,0x28
7.0816167000,0,0x49,0x00
7.0826797000,0,0x00,0xFF
7.0837187000,0,0x20,0x00
7.0847487000,0,0x00,0x20
7.0858475500,0,0x4A,0x00
7.0869199000,0,0x00,0xFF
7.0879588500,0,0x28,0x00
7.0890207000,0,0x00,0x28
7.0900931000,0,0x4A,0x00
7.0911227000,0,0x00,0xFF
7.0922765500,0,0x20,0x00
7.0933619500,0,0x00,0x20
7.0944239000,0,0x4B,0x00
7.0954854000,0,0x00,0xFF
7.0965615000,0,0x28,0x00
7.0976288500,0,0x00,0x28
7.0987362000,0,0x4B,0x00
7.0997998500,0,0x00,0xFF
7.1012722000,0,0x20,0x00
7.1023540000,0,0x00,0x20
7.1034159000,0,0x4C,0x00
7.1044775000,0,0x00,0xFF
7.1055611500,0,0x28,0x00
7.1065996000,0,0x00,0x28
7.1076599500,0,0x4C,0x00
7.1087228000,0,0x00,0xFF
7.1098286500,0,0x20,0x00
7.1108554500,0,0x00,0x20
7.1118855000,0,0x4D,0x00
7.1129306500,0,0x00,0xFF
7.1140473500,0,0x28,0x00
7.1151146000,0,0x00,0x28
7.1161520500,0,0x4D,0x00
7.1172239500,0,0x00,0xFF
7.1183461500,0,0x20,0x00
7.1193782000,0,0x00,0x20
7.1204772500,0,0x4E,0x00
7.1215461000,0,0x00,0xFF
7.1226259000,0,0x28,0x00
7.1237308500,0,0x00,0x28
7.1248028500,0,0x4E,0x00
7.1258644500,0,0x00,0xFF
7.1269511500,0,0x20,0x00
7.1280183000,0,0x00,0x20
7.1290768000,0,0x4F,0x00
7.1301590000,0,0x00,0xFF
7.1312584000,0,0x28,0x00
7.1323546000,0,0x00,0x28
7.1334161000,0,0x4F,0x00
7.1344778000,0,0x00,0xFF
7.1359050500,0,0x20,0x00
7.1369761500,0,0x00,0x20
7.1380454000,0,0x50,0x00
7.1391124000,0,0x00,0xFF
7.1402823500,0,0x28,0x00
7.1413570000,0,0x00,0x28
7.1424189500,0,0x50,0x00
7.1434803000,0,0x00,0xFF
7.1445614000,0,0x20,0x00
7.1456827500,0,0x00,0x20
7.1467445000,0,0x51,0x00
7.1478582500,0,0x00,0xFF
7.1489862500,0,0x28,0x00
7.1500559500,0,0x00,0x28
7.1511177000,0,0x51,0x00
7.1521791000,0,0x00,0xFF
7.1532959000,0,0x20,0x00
7.1543761500,0,0x00,0x20
7.1554805500,0,0x52,0x00
7.1565461500,0,0x00,0xFF
7.1576235000,0,0x28,0x00
7.1587492500,0,0x00,0x28
7.1598513000,0,0x52,0x00
7.1609364500,0,0x00,0xFF
7.1620553000,0,0x20,0x00
7.1631439000,0,0x00,0x20
7.1642221500,0,0x53,0x00
7.1652863500,0,0x00,0xFF
7.1663276000,0,0x28,0x00
7.1673572500,0,0x00,0x28
7.1684193500,0,0x53,0x00
7.1694435500,0,0x00,0xFF
7.1708993000,0,0x20,0x00
7.1719335500,0,0x00,0x20
7.1729953000,0,0x54,0x00
7.1740460000,0,0x00,0xFF
7.1752162000,0,0x28,0x00
7.1762535000,0,0x00,0x28
7.1772940500,0,0x54,0x00
7.1783180500,0,0x00,0xFF
7.1794049500,0,0x20,0x00
7.1804510500,0,0x00,0x20
7.1814915000,0,0x55,0x00
7.1825530000,0,0x00,0xFF
7.1836238500,0,0x28,0x00
7.1846909500,0,0x00,0x28
7.1857366000,0,0x55,0x00
7.1867980500,0,0x00,0xFF
7.1878694500,0,0x20,0x00
7.1890350500,0,0x00,0x20
7.1901025000,0,0x56,0x00
7.1911704000,0,0x00,0xFF
7.1922880000,0,0x28,0x00
7.1933554500,0,0x00,0x28
7.1944248500,0,0x56,0x00
7.1954543000,0,0x00,0xFF
7.1965604000,0,0x20,0x00
7.1975923000,0,0x00,0x20
7.1986754000,0,0x57,0x00
7.1996998500,0,0x00,0xFF
7.2008537000,0,0x28,0x00
7.2018858500,0,0x00,0x28
7.2029315500,0,0x57,0x00
7.2039555500,0,0x00,0xFF
7.2053917000,0,0x20,0x00
7.2064833000,0,0x00,0x20
7.2075075500,0,0x58,0x00
7.2086075000,0,0x00,0xFF
7.2096454500,0,0x28,0x00
7.2107337000,0,0x00,0x28
7.2118011000,0,0x58,0x00
7.2128625500,0,0x00,0xFF
7.2139014000,0,0x20,0x00
7.2149715000,0,0x00,0x20
7.2160355500,0,0x59,0x00
7.2170866500,0,0x00,0xFF
7.2181254500,0,0x28,0x00
7.2191552000,0,0x00,0x28
7.2202488500,0,0x59,0x00
7.2213533500,0,0x00,0xFF
7.2224350500,0,0x20,0x00
7.2235020500,0,0x00,0x20
7.2245466500,0,0x5A,0x00
7.2256091500,0,0x00,0xFF
7.2267260000,0,0x28,0x00
7.2278061000,0,0x00,0x28
7.2289185500,0,0x5A,0x00
7.2299451000,0,0x00,0xFF
7.2310643000,0,0x20,0x00
7.2321313000,0,0x00,0x20
7.2332279000,0,0x5B,0x00
7.2342545000,0,0x00,0xFF
7.2353306500,0,0x28,0x00
7.2364193500,0,0x00,0x28
7.2374813000,0,0x5B,0x00
7.2385532000,0,0x00,0xFF
7.2399725500,0,0x20,0x00
7.2410411500,0,0x00,0x20
7.2421723000,0,0x5C,0x00
7.2432415000,0,0x00,0xFF
7.2443578500,0,0x28,0x00
7.2454222500,0,0x00,0x28
7.2464946000,0,0x5C,0x00
7.2475563000,0,0x00,0xFF
7.2487314000,0,0x20,0x00
7.2497954000,0,0x00,0x20
7.2508571500,0,0x5D,0x00
7.2519186500,0,0x00,0xFF
7.2530164500,0,0x28,0x00
7.2540997000,0,0x00,0x28
7.2551668500,0,0x5D,0x00
7.2562284000,0,0x00,0xFF
7.2573415500,0,0x20,0x00
7.2584197500,0,0x00,0x20
7.2594600000,0,0x5E,0x00
7.2605469000,0,0x00,0xFF
7.2616247000,0,0x28,0x00
7.2627312500,0,0x00,0x28
7.2637926000,0,0x5E,0x00
7.2648587000,0,0x00,0xFF
7.2659018000,0,0x20,0x00
7.2670359000,0,0x00,0x20
7.2681001500,0,0x5F,0x00
7.2691669000,0,0x00,0xFF
7.2702622000,0,0x28,0x00
7.2713583500,0,0x00,0x28
7.2724257000,0,0x5F,0x00
7.2734872000,0,0x00,0xFF
7.2749084500,0,0x20,0x00
7.2759396500,0,0x00,0x20
7.2769643500,0,0x60,0x00
7.2779937500,0,0x00,0xFF
7.2791155000,0,0x28,0x00
7.2801850000,0,0x00,0x28
7.2812470500,0,0x60,0x00
7.2823084000,0,0x00,0xFF
7.2834220500,0,0x20,0x00
7.2844520000,0,0x00,0x20
7.2855031500,0,0x61,0x00
7.2865323500,0,0x00,0xFF
7.2876652500,0,0x28,0x00
7.2887398500,0,0x00,0x28
7.2898016000,0,0x61,0x00
7.2908793000,0,0x00,0xFF
7.2919852000,0,0x20,0x00
7.2930651500,0,0x00,0x20
7.2941621500,0,0x62,0x00
7.2952288500,0,0x00,0xFF
7.2963585000,0,0x28,0x00
7.2974225000,0,0x00,0x28
7.2984844500,0,0x62,0x00
7.2995471500,0,0x00,0xFF
7.3006224000,0,0x20,0x00
7.3017480500,0,0x00,0x20
7.3028098000,0,0x63,0x00
7.3039355000,0,0x00,0xFF
7.3050170000,0,0x28,0x00
7.3061082000,0,0x00,0x28
7.3071724500,0,0x63,0x00
7.3082898000,0,0x00,0xFF
7.3097218000,0,0x20,0x00
7.3107912500,0,0x00,0x20
7.3118596500,0,0x64,0x00
7.3129221500,0,0x00,0xFF
7.3139612000,0,0x28,0x00
7.3150016000,0,0x00,0x28
7.3160258500,0,0x64,0x00
7.3170607000,0,0x00,0xFF
7.3180997000,0,0x20,0x00
7.3191667500,0,0x00,0x20
7.3201911500,0,0x65,0x00
7.3212748500,0,0x00,0xFF
7.3223728500,0,0x28,0x00
7.3234391000,0,0x00,0x28
7.3245005500,0,0x65,0x00
7.3255622000,0,0x00,0xFF
7.3267268000,0,0x20,0x00
7.3277966500,0,0x00,0x20
7.3288596500,0,0x66,0x00
7.3298877500,0,0x00,0xFF
7.3310414500,0,0x28,0x00
7.3321058500,0,0x00,0x28
7.3331301000,0,0x66,0x00
7.3342235500,0,0x00,0xFF
7.3352628000,0,0x20,0x00
7.3362975500,0,0x00,0x20
7.3373327500,0,0x67,0x00
7.3383571500,0,0x00,0xFF
7.3394122000,0,0x28,0x00
7.3404846000,0,0x00,0x28
7.3415472000,0,0x67,0x00
7.3426079000,0,0x00,0xFF
7.3440329500,0,0x20,0x00
7.3450605000,0,0x00,0x20
7.3461650000,0,0x68,0x00
7.3472264000,0,0x00,0xFF
7.3483432000,0,0x28,0x00
7.3494180000,0,0x00,0x28
7.3504795500,0,0x68,0x00
7.3515472000,0,0x00,0xFF
7.3526329000,0,0x20,0x00
7.3537431500,0,0x00,0x20
7.3548157500,0,0x69,0x00
7.3558666000,0,0x00,0xFF
7.3569883500,0,0x28,0x00
7.3580526000,0,0x00,0x28
7.3591143500,0,0x69,0x00
7.3601760500,0,0x00,0xFF
7.3612978000,0,0x20,0x00
7.3623726500,0,0x00,0x20
7.3634769000,0,0x6A,0x00
7.3645473500,0,0x00,0xFF
7.3656363500,0,0x28,0x00
7.3666768500,0,0x00,0x28
7.3677490500,0,0x6A,0x00
7.3688107000,0,0x00,0xFF
7.3699562000,0,0x20,0x00
7.3709965500,0,0x00,0x20
7.3720986000,0,0x6B,0x00
7.3731651000,0,0x00,0xFF
7.3742952000,0,0x28,0x00
7.3753648500,0,0x00,0x28
7.3764318000,0,0x6B,0x00
7.3774935500,0,0x00,0xFF
7.3789075000,0,0x20,0x00
7.3799756500,0,0x00,0x20
7.3810962500,0,0x6C,0x00
7.3821621000,0,0x00,0xFF
7.3832870000,0,0x28,0x00
7.3843567000,0,0x00,0x28
7.3854240500,0,0x6C,0x00
7.3865476500,0,0x00,0xFF
7.3876660500,0,0x20,0x00
7.3887410000,0,0x00,0x20
7.3898081500,0,0x6D,0x00
7.3908696500,0,0x00,0xFF
7.3919741000,0,0x28,0x00
7.3930611000,0,0x00,0x28
7.3941631000,0,0x6D,0x00
7.3952321500,0,0x00,0xFF
7.3962710500,0,0x20,0x00
7.3973011500,0,0x00,0x20
7.3983256000,0,0x6E,0x00
7.3993496000,0,0x00,0xFF
7.4003938500,0,0x28,0x00
7.4014235500,0,0x00,0x28
7.4024853500,0,0x6E,0x00
7.4035098000,0,0x00,0xFF
7.4046284500,0,0x20,0x00
7.4056955500,0,0x00,0x20
7.4067576500,0,0x6F,0x00
7.4077921500,0,0x00,0xFF
7.4088685000,0,0x28,0x00
7.4099410000,0,0x00,0x28
7.4110563000,0,0x6F,0x00
7.4120805500,0,0x00,0xFF
7.4134214000,0,0x20,0x00
7.4144905500,0,0x00,0x20
7.4155148500,0,0x70,0x00
7.4165551500,0,0x00,0xFF
7.4176312500,0,0x28,0x00
7.4186772000,0,0x00,0x28
7.4197388500,0,0x70,0x00
7.4208004000,0,0x00,0xFF
7.4219225500,0,0x20,0x00
7.4229544000,0,0x00,0x20
7.4240484000,0,0x71,0x00
7.4251166000,0,0x00,0xFF
7.4262425000,0,0x28,0x00
7.4273491000,0,0x00,0x28
7.4283843500,0,0x71,0x00
7.4294885500,0,0x00,0xFF
7.4305274000,0,0x20,0x00
7.4316254000,0,0x00,0x20
7.4326509000,0,0x72,0x00
7.4337391500,0,0x00,0xFF
7.4347782000,0,0x28,0x00
7.4358135000,0,0x00,0x28
7.4368752000,0,0x72,0x00
7.4379769500,0,0x00,0xFF
7.4390717000,0,0x20,0x00
7.4401814000,0,0x00,0x20
7.4412432500,0,0x73,0x00
7.4423421000,0,0x00,0xFF
7.4434342000,0,0x28,0x00
7.4445526000,0,0x00,0x28
7.4456218500,0,0x73,0x00
7.4466834000,0,0x00,0xFF
7.4481509000,0,0x20,0x00
7.4492297500,0,0x00,0x20
7.4502940000,0,0x74,0x00
7.4513552500,0,0x00,0xFF
7.4524319500,0,0x28,0x00
7.4535043000,0,0x00,0x28
7.4546088000,0,0x74,0x00
7.4556754500,0,0x00,0xFF
7.4567922500,0,0x20,0x00
7.4579125000,0,0x00,0x20
7.4589821500,0,0x75,0x00
7.4601035000,0,0x00,0xFF
7.4612240000,0,0x28,0x00
7.4622995500,0,0x00,0x28
7.4633608500,0,0x75,0x00
7.4644009000,0,0x00,0xFF
7.4654934000,0,0x20,0x00
7.4665524000,0,0x00,0x20
7.4676673500,0,0x76,0x00
7.4687367500,0,0x00,0xFF
7.4698589500,0,0x28,0x00
7.4709336000,0,0x00,0x28
7.4719953500,0,0x76,0x00
7.4731025500,0,0x00,0xFF
7.4742214000,0,0x20,0x00
7.4752965500,0,0x00,0x20
7.4763583500,0,0x77,0x00
7.4774248500,0,0x00,0xFF
7.4785467500,0,0x28,0x00
7.4796218500,0,0x00,0x28
7.4806836000,0,0x77,0x00
7.4817449500,0,0x00,0xFF
7.4831762500,0,0x20,0x00
7.4842456500,0,0x00,0x20
7.4853476500,0,0x78,0x00
7.4864224500,0,0x00,0xFF
7.4875041000,0,0x28,0x00
7.4886115500,0,0x00,0x28
7.4896808000,0,0x78,0x00
7.4907919000,0,0x00,0xFF
7.4919042500,0,0x20,0x00
7.4930381000,0,0x00,0x20
7.4941663500,0,0x79,0x00
7.4952278500,0,0x00,0xFF
7.4963496000,0,0x28,0x00
7.4974194500,0,0x00,0x28
7.4984864000,0,0x79,0x00
7.4995479000,0,0x00,0xFF
7.5006244000,0,0x20,0x00
7.5017316000,0,0x00,0x20
7.5028012500,0,0x7A,0x00
7.5038627500,0,0x00,0xFF
7.5049845000,0,0x28,0x00
7.5060488000,0,0x00,0x28
7.5071691500,0,0x7A,0x00
7.5082306500,0,0x00,0xFF
7.5093313000,0,0x20,0x00
7.5104220000,0,0x00,0x20
7.5114839000,0,0x7B,0x00
7.5125482000,0,0x00,0xFF
7.5136674500,0,0x28,0x00
7.5147423000,0,0x00,0x28
7.5158040500,0,0x7B,0x00
7.5168654000,0,0x00,0xFF
7.5182391500,0,0x20,0x00
7.5193127500,0,0x00,0x20
7.5203745000,0,0x7C,0x00
7.5213989500,0,0x00,0xFF
7.5224964500,0,0x28,0x00
7.5236170500,0,0x00,0x28
7.5246732000,0,0x7C,0x00
7.5257400500,0,0x00,0xFF
7.5268568000,0,0x20,0x00
7.5279424000,0,0x00,0x20
7.5289935000,0,0x7D,0x00
7.5300657000,0,0x00,0xFF
7.5311526000,0,0x28,0x00
7.5322944500,0,0x00,0x28
7.5333562000,0,0x7D,0x00
7.5344174000,0,0x00,0xFF
7.5354992500,0,0x20,0x00
7.5365663500,0,0x00,0x20
7.5376759000,0,0x7E,0x00
7.5387377500,0,0x00,0xFF
7.5398862000,0,0x28,0x00
7.5409344500,0,0x00,0x28
7.5419959500,0,0x7E,0x00
7.5430843000,0,0x00,0xFF
7.5441796500,0,0x20,0x00
7.5452703500,0,0x00,0x20
7.5463270000,0,0x7F,0x00
7.5473776000,0,0x00,0xFF
7.5484218500,0,0x28,0x00
7.5494625500,0,0x00,0x28
7.5505480500,0,0x7F,0x00
7.5516175500,0,0x00,0xFF
7.5541894000,0,0x40,0x00
7.5563000000,0,0x00,0x40
7.5582840500,0,0x00,0x00
7.5602959500,0,0x0C,0x00
7.5623163500,0,0x48,0x0C
7.5643002000,0,0x00,0x48
7.5662951000,0,0x00,0x00
7.5682952000,0,0x94,0x00
7.5703097500,0,0x40,0x94
7.5722964000,0,0x00,0x40
7.5742911000,0,0x01,0x00
7.5763018000,0,0x34,0x01
7.5783238000,0,0x48,0x34
7.5803123500,0,0x00,0x48
7.5822842000,0,0x01,0x00
7.5841245500,0,0x00,0x01
7.5854793000,0,0x40,0x00
7.5869347500,0,0x00,0x40
7.5885457500,0,0x02,0x00
7.5895694000,0,0x0C,0x02
7.5911487000,0,0x48,0x0C
7.5921775500,0,0x00,0x48
7.5935913000,0,0x02,0x00
7.5951727500,0,0x94,0x02
7.5970045000,0,0x40,0x94
7.5987801000,0,0x00,0x40
7.6003267000,0,0x03,0x00
7.6020037000,0,0x3E,0x03
7.6033408000,0,0x48,0x3E
7.6046200000,0,0x00,0x48
7.6061246000,0,0x03,0x00
7.6077803500,0,0x00,0x03
7.6094389500,0,0x40,0x00
7.6107377000,0,0x00,0x40
7.6119381500,0,0x04,0x00
7.6136150000,0,0x0C,0x04
7.6146635000,0,0x48,0x0C
7.6162746000,0,0x00,0x48
7.6180681000,0,0x04,0x00
7.6196765500,0,0x94,0x04
7.6214100500,0,0x40,0x94
7.6233056500,0,0x00,0x40
7.6251672000,0,0x05,0x00
7.6272098500,0,0x3E,0x05
7.6287851500,0,0x48,0x3E
7.6307668000,0,0x00,0x48
7.6322981000,0,0x05,0x00
7.6340444500,0,0x00,0x05
7.6361467000,0,0x40,0x00
7.6378833000,0,0x00,0x40
7.6391919000,0,0x06,0x00
7.6403984000,0,0x0C,0x06
7.6415808500,0,0x48,0x0C
7.6428933500,0,0x00,0x48
7.6447468500,0,0x06,0x00
7.6464664500,0,0x94,0x06
7.6478211500,0,0x40,0x94
7.6492360000,0,0x00,0x40
7.6503599000,0,0x07,0x00
7.6519002000,0,0x3E,0x07
7.6537674500,0,0x48,0x3E
7.6552939500,0,0x00,0x48
7.6573027500,0,0x07,0x00
7.6593066000,0,0x00,0x07
7.6614563000,0,0x40,0x00
7.6635010500,0,0x00,0x40
7.6654960500,0,0x08,0x00
7.6674796500,0,0x0C,0x08
7.6695013500,0,0x48,0x0C
7.6714851500,0,0x00,0x48
7.6734908000,0,0x08,0x00
7.6754691000,0,0x94,0x08
7.6776245000,0,0x40,0x94
7.6796205500,0,0x00,0x40
7.6816155500,0,0x09,0x00
7.6836152500,0,0x3E,0x09
7.6856367500,0,0x48,0x3E
7.6876202000,0,0x00,0x48
7.6894962000,0,0x09,0x00
7.6906479000,0,0x00,0x09
7.6923306500,0,0x40,0x00
7.6937787500,0,0x00,0x40
7.6957834500,0,0x0A,0x00
7.6970373000,0,0x0C,0x0A
7.6987709000,0,0x48,0x0C
7.7004240500,0,0x00,0x48
7.7021096500,0,0x0A,0x00
7.7031867000,0,0x94,0x0A
7.7046054500,0,0x40,0x94
7.7056344500,0,0x00,0x40
7.7070699000,0,0x0B,0x00
7.7082072500,0,0x3E,0x0B
7.7097361500,0,0x48,0x3E
7.7107654000,0,0x00,0x48
7.7124036000,0,0x0B,0x00
7.7141680500,0,0x00,0x0B
7.7158413000,0,0x40,0x00
7.7172987500,0,0x00,0x40
7.7188965000,0,0x0C,0x00
7.7206800000,0,0x0C,0x0C
7.7224083500,0,0x48,0x0C
7.7237772000,0,0x00,0x48
7.7256160000,0,0x0C,0x00
7.7277472500,0,0x94,0x0C
7.7294377500,0,0x40,0x94
7.7304668000,0,0x00,0x40
7.7320511500,0,0x0D,0x00
7.7330749000,0,0x3E,0x0D
7.7346964000,0,0x48,0x3E
7.7357256500,0,0x00,0x48
7.7371926000,0,0x0D,0x00
7.7382163500,0,0x00,0x0D
7.7396781000,0,0x40,0x00
7.7414429000,0,0x00,0x40
7.7434285500,0,0x0E,0x00
7.7453328500,0,0x0C,0x0E
7.7474583500,0,0x48,0x0C
7.7494912000,0,0x00,0x48
7.7514966500,0,0x0E,0x00
7.7536174000,0,0x94,0x0E
7.7558757000,0,0x40,0x94
7.7577522000,0,0x00,0x40
7.7597473000,0,0x0F,0x00
7.7617469000,0,0x3E,0x0F
7.7637688500,0,0x48,0x3E
7.7657684500,0,0x00,0x48
7.7677643000,0,0x0F,0x00
7.7697644000,0,0x00,0x0F
7.7720347500,0,0x40,0x00
7.7740193500,0,0x00,0x40
7.7760361500,0,0x10,0x00
7.7780320500,0,0x0C,0x10
7.7800538500,0,0x48,0x0C
7.7820374500,0,0x00,0x48
7.7840322000,0,0x10,0x00
7.7860325000,0,0x94,0x10
7.7880516000,0,0x40,0x94
7.7900374500,0,0x00,0x40
7.7920258000,0,0x11,0x00
7.7940248000,0,0x3E,0x11
7.7958277500,0,0x48,0x3E
7.7972378500,0,0x00,0x48
7.7986158500,0,0x11,0x00
7.8006756000,0,0x00,0x11
7.8024640500,0,0x40,0x00
7.8042968000,0,0x00,0x40
7.8057627500,0,0x12,0x00
7.8074971000,0,0x0C,0x12
7.8085427000,0,0x48,0x0C
7.8100943000,0,0x00,0x48
7.8111185500,0,0x12,0x00
7.8126067500,0,0x94,0x12
7.8136519000,0,0x40,0x94
7.8149368500,0,0x00,0x40
7.8167186000,0,0x13,0x00
7.8184519000,0,0x3E,0x13
7.8203684000,0,0x48,0x3E
7.8219611500,0,0x00,0x48
7.8236630000,0,0x13,0x00
7.8253629500,0,0x00,0x13
7.8273766500,0,0x40,0x00
7.8289182500,0,0x00,0x40
7.8303190000,0,0x14,0x00
7.8316160000,0,0x0C,0x14
7.8332147500,0,0x48,0x0C
7.8342440500,0,0x00,0x48
7.8361217000,0,0x14,0x00
7.8371454500,0,0x94,0x14
7.8383988000,0,0x40,0x94
7.8398597500,0,0x00,0x40
7.8411296000,0,0x15,0x00
7.8424466000,0,0x3E,0x15
7.8436414500,0,0x48,0x3E
7.8449385500,0,0x00,0x48
7.8467478000,0,0x15,0x00
7.8480415000,0,0x00,0x15
7.8499938500,0,0x40,0x00
7.8517478500,0,0x00,0x40
7.8534659000,0,0x16,0x00
7.8554547500,0,0x0C,0x16
7.8570549000,0,0x48,0x0C
7.8588094500,0,0x00,0x48
7.8601653500,0,0x16,0x00
7.8618148000,0,0x94,0x16
7.8637450000,0,0x40,0x94
7.8652107500,0,0x00,0x40
7.8671462000,0,0x17,0x00
7.8691576000,0,0x3E,0x17
7.8711843000,0,0x48,0x3E
7.8731630000,0,0x00,0x48
7.8751582500,0,0x17,0x00
7.8771604500,0,0x00,0x17
7.8794348000,0,0x40,0x00
7.8814508000,0,0x00,0x40
7.8835033500,0,0x18,0x00
7.8854977000,0,0x0C,0x18
7.8876318000,0,0x48,0x0C
7.8896212500,0,0x00,0x48
7.8916166500,0,0x18,0x00
7.8936162000,0,0x94,0x18
7.8956375500,0,0x40,0x94
7.8976213000,0,0x00,0x40
7.8996167500,0,0x19,0x00
7.9011674000,0,0x3E,0x19
7.9029542500,0,0x48,0x3E
7.9048364500,0,0x00,0x48
7.9064521500,0,0x19,0x00
7.9079885500,0,0x00,0x19
7.9094773500,0,0x40,0x00
7.9111717000,0,0x00,0x40
7.9128048500,0,0x1A,0x00
7.9141914000,0,0x0C,0x1A
7.9152370000,0,0x48,0x0C
7.9167461500,0,0x00,0x48
7.9177704000,0,0x1A,0x00
7.9191303500,0,0x94,0x1A
7.9201755000,0,0x40,0x94
7.9216848000,0,0x00,0x40
7.9234274000,0,0x1B,0x00
7.9249001500,0,0x3E,0x1B
7.9266380000,0,0x48,0x3E
7.9284489500,0,0x00,0x48
7.9303720500,0,0x1B,0x00
7.9315142000,0,0x00,0x1B
7.9328220500,0,0x40,0x00
7.9338502500,0,0x00,0x40
7.9353440000,0,0x1C,0x00
7.9369380000,0,0x0C,0x1C
7.9387678000,0,0x48,0x0C
7.9397970500,0,0x00,0x48
7.9412001500,0,0x1C,0x00
7.9428050500,0,0x94,0x1C
7.9447145000,0,0x40,0x94
7.9464611000,0,0x00,0x40
7.9481495500,0,0x1D,0x00
7.9491731500,0,0x3E,0x1D
7.9505013000,0,0x48,0x3E
7.9524341500,0,0x00,0x48
7.9544223500,0,0x1D,0x00
7.9564221000,0,0x00,0x1D
7.9583892000,0,0x40,0x00
7.9602173000,0,0x00,0x40
7.9619468500,0,0x1E,0x00
7.9638167000,0,0x0C,0x1E
7.9654400500,0,0x48,0x0C
7.9664693000,0,0x00,0x48
7.9678827500,0,0x1E,0x00
7.9690384000,0,0x94,0x1E
7.9710475000,0,0x40,0x94
7.9730337000,0,0x00,0x40
7.9750293000,0,0x1F,0x00
7.9770264000,0,0x3E,0x1F
7.9790548500,0,0x48,0x3E
7.9811762000,0,0x00,0x48
7.9831698000,0,0x1F,0x00
7.9851564000,0,0x00,0x1F
7.9874184000,0,0x40,0x00
7.9894245000,0,0x00,0x40
7.9914295500,0,0x20,0x00
7.9934102500,0,0x0C,0x20
7.9954809000,0,0x48,0x0C
7.9971567500,0,0x00,0x48
7.9986833000,0,0x20,0x00
7.9999682000,0,0x94,0x20
8.0010712000,0,0x40,0x94
8.0022616500,0,0x00,0x40
8.0036804000,0,0x21,0x00
8.0047043500,0,0x3E,0x21
8.0060220000,0,0x48,0x3E
8.0070508500,0,0x00,0x48
8.0083848000,0,0x21,0x00
8.0096390500,0,0x00,0x21
8.0111204000,0,0x40,0x00
8.0124585000,0,0x00,0x40
8.0141715000,0,0x22,0x00
8.0151950000,0,0x0C,0x22
8.0165711000,0,0x48,0x0C
8.0177036500,0,0x00,0x48
8.0190088000,0,0x22,0x00
8.0206171500,0,0x94,0x22
8.0220221500,0,0x40,0x94
8.0236218500,0,0x00,0x40
8.0257490500,0,0x23,0x00
8.0276167000,0,0x3E,0x23
8.0294355000,0,0x48,0x3E
8.0313607000,0,0x00,0x48
8.0328220000,0,0x23,0x00
8.0344283000,0,0x00,0x23
8.0366396500,0,0x40,0x00
8.0376699000,0,0x00,0x40
8.0389981500,0,0x24,0x00
8.0400713500,0,0x0C,0x24
8.0414727500,0,0x48,0x0C
8.0427548000,0,0x00,0x48
8.0444437000,0,0x24,0x00
8.0462185000,0,0x94,0x24
8.0478675000,0,0x40,0x94
8.0488965000,0,0x00,0x40
8.0501930000,0,0x25,0x00
8.0513607000,0,0x3E,0x25
8.0533361500,0,0x48,0x3E
8.0551739000,0,0x00,0x48
8.0571002500,0,0x25,0x00
8.0587710000,0,0x00,0x25
8.0603169500,0,0x40,0x00
8.0619582000,0,0x00,0x40
8.0637452500,0,0x26,0x00
8.0648399000,0,0x0C,0x26
8.0671155000,0,0x48,0x0C
8.0687908000,0,0x00,0x48
8.0701934000,0,0x26,0x00
8.0713300500,0,0x94,0x26
8.0725825500,0,0x40,0x94
8.0738917500,0,0x00,0x40
8.0750144500,0,0x27,0x00
8.0771733500,0,0x3E,0x27
8.0791811500,0,0x48,0x3E
8.0811623000,0,0x00,0x48
8.0831551000,0,0x27,0x00
8.0851560500,0,0x00,0x27
8.0874310500,0,0x40,0x00
8.0894157500,0,0x00,0x40
8.0914391000,0,0x28,0x00
8.0934293500,0,0x0C,0x28
8.0954512000,0,0x48,0x0C
8.0974890000,0,0x00,0x48
8.0994894000,0,0x28,0x00
8.1014998500,0,0x94,0x28
8.1036283000,0,0x40,0x94
8.1057536500,0,0x00,0x40
8.1077489000,0,0x29,0x00
8.1097487000,0,0x3E,0x29
8.1116177000,0,0x48,0x3E
8.1131105500,0,0x00,0x48
8.1146041500,0,0x29,0x00
8.1157498000,0,0x00,0x29
8.1179537500,0,0x40,0x00
8.1194467000,0,0x00,0x40
8.1211661000,0,0x2A,0x00
8.1231120500,0,0x0C,0x2A
8.1246150000,0,0x48,0x0C
8.1263390000,0,0x00,0x48
8.1278098500,0,0x2A,0x00
8.1293083500,0,0x94,0x2A
8.1303535500,0,0x40,0x94
8.1319426500,0,0x00,0x40
8.1329673000,0,0x2B,0x00
8.1348121500,0,0x3E,0x2B
8.1359112000,0,0x48,0x3E
8.1372761000,0,0x00,0x48
8.1385513500,0,0x2B,0x00
8.1398147000,0,0x00,0x2B
8.1418921500,0,0x40,0x00
8.1436226500,0,0x00,0x40
8.1454900500,0,0x2C,0x00
8.1471660500,0,0x0C,0x2C
8.1486392000,0,0x48,0x0C
8.1499643000,0,0x00,0x48
8.1519220000,0,0x2C,0x00
8.1536179500,0,0x94,0x2C
8.1557462000,0,0x40,0x94
8.1574415500,0,0x00,0x40
8.1589572500,0,0x2D,0x00
8.1609038500,0,0x3E,0x2D
8.1626392500,0,0x48,0x3E
8.1637457000,0,0x00,0x48
8.1651008000,0,0x2D,0x00
8.1661244000,0,0x00,0x2D
8.1674209000,0,0x40,0x00
8.1684499000,0,0x00,0x40
8.1702900000,0,0x2E,0x00
8.1718097000,0,0x0C,0x2E
8.1728553000,0,0x48,0x0C
8.1746154500,0,0x00,0x48
8.1760284000,0,0x2E,0x00
8.1772554000,0,0x94,0x2E
8.1785033500,0,0x40,0x94
8.1805033500,0,0x00,0x40
8.1824984500,0,0x2F,0x00
8.1844979000,0,0x3E,0x2F
8.1867466500,0,0x48,0x3E
8.1887544500,0,0x00,0x48
8.1907494000,0,0x2F,0x00
8.1927490500,0,0x00,0x2F
8.1950285000,0,0x40,0x00
8.1970359500,0,0x00,0x40
8.1990280500,0,0x30,0x00
8.2010368000,0,0x0C,0x30
8.2030554000,0,0x48,0x0C
8.2050441000,0,0x00,0x48
8.2070389500,0,0x30,0x00
8.2090348000,0,0x94,0x30
8.2111642500,0,0x40,0x94
8.2131718500,0,0x00,0x40
8.2150318500,0,0x31,0x00
8.2160556000,0,0x3E,0x31
8.2173999500,0,0x48,0x3E
8.2184288000,0,0x00,0x48
8.2202193500,0,0x31,0x00
8.2221708500,0,0x00,0x31
8.2236401000,0,0x40,0x00
8.2253129000,0,0x00,0x40
8.2273612500,0,0x32,0x00
8.2290812500,0,0x0C,0x32
8.2303440000,0,0x48,0x0C
8.2316877000,0,0x00,0x48
8.2327119500,0,0x32,0x00
8.2342723000,0,0x94,0x32
8.2353199500,0,0x40,0x94
8.2369889000,0,0x00,0x40
8.2382586500,0,0x33,0x00
8.2396186000,0,0x3E,0x33
8.2409949500,0,0x48,0x3E
8.2421862000,0,0x00,0x48
8.2441730500,0,0x33,0x00
8.2461768500,0,0x00,0x33
8.2484484500,0,0x40,0x00
8.2507578500,0,0x00,0x40
8.2527524000,0,0x34,0x00
8.2548859000,0,0x11,0x34
8.2570035000,0,0x48,0x11
8.2588772000,0,0x00,0x48
8.2607671500,0,0x34,0x00
8.2626192500,0,0x24,0x34
8.2644545000,0,0x40,0x24
8.2660188500,0,0x00,0x40
8.2680894500,0,0x35,0x00
8.2694427000,0,0x1F,0x35
8.2706110500,0,0x48,0x1F
8.2718162500,0,0x00,0x48
8.2735071000,0,0x35,0x00
8.2746804500,0,0xBE,0x35
8.2761041000,0,0x40,0xBE
8.2778163000,0,0x00,0x40
8.2792408000,0,0x36,0x00
8.2807873500,0,0xCF,0x36
8.2826183500,0,0x48,0xCF
8.2846246000,0,0x00,0x48
8.2866200500,0,0x36,0x00
8.2886198000,0,0xEF,0x36
8.2907746000,0,0x40,0xEF
8.2928972000,0,0x00,0x40
8.2950255500,0,0x37,0x00
8.2971512500,0,0xD4,0x37
8.2993127500,0,0x48,0xD4
8.3013085000,0,0x00,0x48
8.3033085500,0,0x37,0x00
8.3053162500,0,0xE0,0x37
8.3077503500,0,0x40,0xE0
8.3097711000,0,0x00,0x40
8.3117660500,0,0x38,0x00
8.3137657500,0,0xDE,0x38
8.3157711500,0,0x48,0xDE
8.3177718500,0,0x00,0x48
8.3196188000,0,0x38,0x00
8.3207289500,0,0xBF,0x38
8.3221861500,0,0x40,0xBF
8.3237736500,0,0x00,0x40
8.3253077500,0,0x39,0x00
8.3270062000,0,0xCD,0x39
8.3290064500,0,0x48,0xCD
8.3311818000,0,0x00,0x48
8.3329370000,0,0x39,0x00
8.3348301000,0,0xBF,0x39
8.3367022000,0,0x40,0xBF
8.3384139000,0,0x00,0x40
8.3398760000,0,0x3A,0x00
8.3411928500,0,0x0E,0x3A
8.3429027000,0,0x48,0x0E
8.3446234500,0,0x00,0x48
8.3464294000,0,0x3A,0x00
8.3484622500,0,0x94,0x3A
8.3506281500,0,0x40,0x94
8.3526237000,0,0x00,0x40
8.3544310500,0,0x3B,0x00
8.3564169500,0,0x40,0x3B
8.3580254000,0,0x48,0x40
8.3600211000,0,0x00,0x48
8.3620863500,0,0x3B,0x00
8.3638806500,0,0x00,0x3B
8.3657214000,0,0x40,0x00
8.3667904000,0,0x00,0x40
8.3678334000,0,0x3C,0x00
8.3688570000,0,0x0C,0x3C
8.3699722000,0,0x48,0x0C
8.3710543500,0,0x00,0x48
8.3721161000,0,0x3C,0x00
8.3731404000,0,0x94,0x3C
8.3742522500,0,0x40,0x94
8.3753425000,0,0x00,0x40
8.3764146500,0,0x3D,0x00
8.3774864000,0,0x56,0x3D
8.3786146000,0,0x48,0x56
8.3796943000,0,0x00,0x48
8.3807935500,0,0x3D,0x00
8.3818703000,0,0x00,0x3D
8.3829933000,0,0x40,0x00
8.3841075500,0,0x00,0x40
8.3851668500,0,0x3E,0x00
8.3862065000,0,0x0C,0x3E
8.3873133500,0,0x48,0x0C
8.3884226000,0,0x00,0x48
8.3894923000,0,0x3E,0x00
8.3905534500,0,0x94,0x3E
8.3916761500,0,0x40,0x94
8.3927451500,0,0x00,0x40
8.3938069000,0,0x3F,0x00
8.3948681000,0,0x00,0x3F
8.3959911000,0,0x48,0x00
8.3970224500,0,0x00,0x48
8.3980629500,0,0x3F,0x00
8.3991508000,0,0x00,0x3F
8.4002850500,0,0x4C,0x00
8.4014041500,0,0x00,0x4C
8.4024896500,0,0x3F,0x00
8.4035517000,0,0x00,0x3F
8.4046354500,0,0x28,0x00
8.4057480500,0,0x00,0x28
8.4068198000,0,0x3F,0x00
8.4078711500,0,0x00,0xFF
8.4089856500,0,0x28,0x00
8.4101082500,0,0x00,0x28
8.4111833500,0,0x3F,0x00
8.4122447000,0,0x00,0x00
8.4147484500,0,0x40,0x00
8.4167553000,0,0x00,0x40
8.4187672500,0,0x40,0x00
8.4207671000,0,0x50,0x40
8.4227878500,0,0x48,0x50
8.4249396500,0,0x00,0x48
8.4270407500,0,0x40,0x00
8.4290405000,0,0x9A,0x40
8.4309310000,0,0x40,0x9A
8.4330386500,0,0x00,0x40
8.4350355500,0,0x41,0x00
8.4370456500,0,0x58,0x41
8.4390377500,0,0x48,0x58
8.4412188500,0,0x00,0x48
8.4429436500,0,0x41,0x00
8.4450677500,0,0x98,0x41
8.4467672500,0,0x40,0x98
8.4485004500,0,0x00,0x40
8.4499357000,0,0x42,0x00
8.4517005500,0,0x2F,0x42
8.4534594000,0,0x48,0x2F
8.4552894000,0,0x00,0x48
8.4573096000,0,0x42,0x00
8.4593068000,0,0xEF,0x42
8.4613330000,0,0x40,0xEF
8.4632957500,0,0x00,0x40
8.4653004500,0,0x43,0x00
8.4673040500,0,0x89,0x43
8.4693239000,0,0x48,0x89
8.4710751000,0,0x00,0x48
8.4730331000,0,0x43,0x00
8.4751486000,0,0xE6,0x43
8.4772922000,0,0x40,0xE6
8.4791675500,0,0x00,0x40
8.4809971000,0,0x44,0x00
8.4830324500,0,0x98,0x44
8.4850542000,0,0x48,0x98
8.4869380000,0,0x00,0x48
8.4890300000,0,0x44,0x00
8.4909012000,0,0xE1,0x44
8.4927728500,0,0x40,0xE1
8.4946253000,0,0x00,0x40
8.4966204000,0,0x45,0x00
8.4987522000,0,0x21,0x45
8.5007741000,0,0x48,0x21
8.5027577000,0,0x00,0x48
8.5047527500,0,0x45,0x00
8.5067525000,0,0x50,0x45
8.5088819500,0,0x40,0x50
8.5108900500,0,0x00,0x40
8.5128848000,0,0x46,0x00
8.5149006500,0,0x80,0x46
8.5169211000,0,0x48,0x80
8.5189134500,0,0x00,0x48
8.5209087000,0,0x46,0x00
8.5229086500,0,0x40,0x46
8.5251700000,0,0x40,0x40
8.5271750500,0,0x00,0x40
8.5290790500,0,0x47,0x00
8.5309726500,0,0x90,0x47
8.5327681000,0,0x48,0x90
8.5341385000,0,0x00,0x48
8.5351632000,0,0x47,0x00
8.5365759500,0,0x40,0x47
8.5380131500,0,0x40,0x40
8.5397790500,0,0x00,0x40
8.5408910000,0,0x48,0x00
8.5423787000,0,0xE1,0x48
8.5434722000,0,0x48,0xE1
8.5448693500,0,0x00,0x48
8.5463846500,0,0x48,0x00
8.5477282500,0,0xF7,0x48
8.5489620000,0,0x40,0xF7
8.5505013500,0,0x00,0x40
8.5521675000,0,0x49,0x00
8.5537516000,0,0x00,0x49
8.5558094000,0,0x48,0x00
8.5577946000,0,0x00,0x48
8.5599257000,0,0x49,0x00
8.5619318000,0,0xC0,0x49
8.5636227000,0,0x40,0xC0
8.5649014000,0,0x00,0x40
8.5669046500,0,0x4A,0x00
8.5682980000,0,0x00,0x4A
8.5699580500,0,0x48,0x00
8.5714189500,0,0x00,0x48
8.5726834500,0,0x4A,0x00
8.5737868000,0,0x00,0x4A
8.5754245000,0,0x40,0x00
8.5770942500,0,0x00,0x40
8.5787737000,0,0x4B,0x00
8.5798991000,0,0x58,0x4B
8.5814255500,0,0x48,0x58
8.5828535500,0,0x00,0x48
8.5846835000,0,0x4B,0x00
8.5864488500,0,0x9A,0x4B
8.5884288500,0,0x40,0x9A
8.5903739500,0,0x00,0x40
8.5917797500,0,0x4C,0x00
8.5938512500,0,0x2F,0x4C
8.5956232500,0,0x48,0x2F
8.5973087000,0,0x00,0x48
8.5993013000,0,0x4C,0x00
8.6013173500,0,0xEF,0x4C
8.6034596000,0,0x40,0xEF
8.6056232000,0,0x00,0x40
8.6076205500,0,0x4D,0x00
8.6097491000,0,0x89,0x4D
8.6117852500,0,0x48,0x89
8.6137541000,0,0x00,0x48
8.6157489500,0,0x4D,0x00
8.6177492500,0,0xE6,0x4D
8.6197706500,0,0x40,0xE6
8.6217543500,0,0x00,0x40
8.6237493000,0,0x4E,0x00
8.6257650000,0,0x98,0x4E
8.6278933500,0,0x48,0x98
8.6298824500,0,0x00,0x48
8.6318774500,0,0x4E,0x00
8.6339067500,0,0xE1,0x4E
8.6360647500,0,0x40,0xE1
8.6380235000,0,0x00,0x40
8.6399053500,0,0x4F,0x00
8.6418675500,0,0x21,0x4F
8.6437745500,0,0x48,0x21
8.6456235000,0,0x00,0x48
8.6477542000,0,0x4F,0x00
8.6499058000,0,0x50,0x4F
8.6518851500,0,0x40,0x50
8.6539006000,0,0x00,0x40
8.6558902500,0,0x50,0x00
8.6580383000,0,0x80,0x50
8.6601660000,0,0x48,0x80
8.6620326000,0,0x00,0x48
8.6639856000,0,0x50,0x00
8.6660917000,0,0x40,0x50
8.6679317000,0,0x40,0x40
8.6698359000,0,0x00,0x40
8.6712389000,0,0x51,0x00
8.6723157000,0,0x90,0x51
8.6741530500,0,0x48,0x90
8.6751798000,0,0x00,0x48
8.6768253000,0,0x51,0x00
8.6782732500,0,0x40,0x51
8.6795325000,0,0x40,0x40
8.6810095000,0,0x00,0x40
8.6820337500,0,0x52,0x00
8.6833457000,0,0xE1,0x52
8.6844445500,0,0x48,0xE1
8.6863708000,0,0x00,0x48
8.6879337500,0,0x52,0x00
8.6899216000,0,0xF7,0x52
8.6911592000,0,0x40,0xF7
8.6924281000,0,0x00,0x40
8.6935164000,0,0x53,0x00
8.6948122500,0,0x00,0x53
8.6966227500,0,0x48,0x00
8.6983278500,0,0x00,0x48
8.6994527500,0,0x53,0x00
8.7008177000,0,0xC0,0x53
8.7022644000,0,0x40,0xC0
8.7033990500,0,0x00,0x40
8.7049062500,0,0x54,0x00
8.7071917000,0,0x00,0x54
8.7093614500,0,0x48,0x00
8.7114096500,0,0x00,0x48
8.7134102500,0,0x54,0x00
8.7154043500,0,0x00,0x54
8.7174848500,0,0x40,0x00
8.7196328000,0,0x00,0x40
8.7219145000,0,0x55,0x00
8.7240541000,0,0xEB,0x55
8.7260948500,0,0x48,0xEB
8.7282243000,0,0x00,0x48
8.7301955000,0,0x55,0x00
8.7324704000,0,0xCF,0x55
8.7346494500,0,0x40,0xCF
8.7367938000,0,0x00,0x40
8.7389153000,0,0x56,0x00
8.7407541500,0,0xF8,0x56
8.7426494500,0,0x48,0xF8
8.7446331500,0,0x00,0x48
8.7466283000,0,0x56,0x00
8.7487755000,0,0x94,0x56
8.7509383500,0,0x40,0x94
8.7524585500,0,0x00,0x40
8.7544663000,0,0x57,0x00
8.7566278000,0,0xFF,0x57
8.7583344000,0,0x48,0xFF
8.7603201000,0,0x00,0x48
8.7624079000,0,0x57,0x00
8.7643338000,0,0xCF,0x57
8.7664951500,0,0x40,0xCF
8.7679702500,0,0x00,0x40
8.7698212000,0,0x58,0x00
8.7716284000,0,0xFF,0x58
8.7734265000,0,0x48,0xFF
8.7746957500,0,0x00,0x48
8.7761412500,0,0x58,0x00
8.7774211000,0,0xFF,0x58
8.7789386000,0,0x40,0xFF
8.7812230500,0,0x00,0x40
8.7831992500,0,0x59,0x00
8.7850597000,0,0xFF,0x59
8.7872794500,0,0x48,0xFF
8.7894794000,0,0x00,0x48
8.7914908500,0,0x59,0x00
8.7936285000,0,0xFF,0x59
8.7956502000,0,0x40,0xFF
8.7977964500,0,0x00,0x40
8.7993122500,0,0x5A,0x00
8.8016285000,0,0xFF,0x5A
8.8034642000,0,0x48,0xFF
8.8049837000,0,0x00,0x48
8.8060084000,0,0x5A,0x00
8.8074750000,0,0xFF,0x5A
8.8086110000,0,0x40,0xFF
8.8103533500,0,0x00,0x40
8.8123427000,0,0x5B,0x00
8.8143425500,0,0xFF,0x5B
8.8163499000,0,0x48,0xFF
8.8184238500,0,0x00,0x48
8.8204139500,0,0x5B,0x00
8.8224243500,0,0xFF,0x5B
8.8247643000,0,0x40,0xFF
8.8270506000,0,0x00,0x40
8.8293421000,0,0x5C,0x00
8.8313508000,0,0xFF,0x5C
8.8334378000,0,0x48,0xFF
8.8356336000,0,0x00,0x48
8.8376287500,0,0x5C,0x00
8.8397680500,0,0xFF,0x5C
8.8419284000,0,0x40,0xFF
8.8439602500,0,0x00,0x40
8.8449845000,0,0x5D,0x00
8.8465417000,0,0xFF,0x5D
8.8475873000,0,0x48,0xFF
8.8489308000,0,0x00,0x48
8.8503873000,0,0x5D,0x00
8.8516885500,0,0xFF,0x5D
8.8534806000,0,0x40,0xFF
8.8551751000,0,0x00,0x40
8.8569744500,0,0x5E,0x00
8.8588250500,0,0xFF,0x5E
8.8608137500,0,0x48,0xFF
8.8626962500,0,0x00,0x48
8.8644940500,0,0x5E,0x00
8.8663065500,0,0xFF,0x5E
8.8674541500,0,0x40,0xFF
8.8689508000,0,0x00,0x40
8.8709224000,0,0x5F,0x00
8.8729796000,0,0xFF,0x5F
8.8740248000,0,0x48,0xFF
8.8753951500,0,0x00,0x48
8.8768996500,0,0x5F,0x00
8.8780701000,0,0xFF,0x5F
8.8804986000,0,0x40,0xFF
8.8824885500,0,0x00,0x40
8.8843022000,0,0x60,0x00
8.8864090000,0,0xFF,0x60
8.8883291000,0,0x48,0xFF
8.8901975500,0,0x00,0x48
8.8915663500,0,0x60,0x00
8.8928114000,0,0xFF,0x60
8.8939715500,0,0x40,0xFF
8.8954806000,0,0x00,0x40
8.8971452000,0,0x61,0x00
8.8981692000,0,0xFF,0x61
8.8997796000,0,0x48,0xFF
8.9016348000,0,0x00,0x48
8.9036295500,0,0x61,0x00
8.9053851000,0,0xFF,0x61
8.9065423500,0,0x40,0xFF
8.9078313500,0,0x00,0x40
8.9095240500,0,0x62,0x00
8.9112016500,0,0xFF,0x62
8.9127133500,0,0x48,0xFF
8.9137421500,0,0x00,0x48
8.9154654500,0,0x62,0x00
8.9174653000,0,0xFF,0x62
8.9194974000,0,0x40,0xFF
8.9214811000,0,0x00,0x40
8.9234921000,0,0x63,0x00
8.9254813500,0,0xFF,0x63
8.9274919000,0,0x48,0xFF
8.9296342500,0,0x00,0x48
8.9316297500,0,0x63,0x00
8.9337888500,0,0xFF,0x63
8.9360527000,0,0x40,0xFF
8.9383708000,0,0x00,0x40
8.9403426500,0,0x64,0x00
8.9423518000,0,0xFF,0x64
8.9444362000,0,0x48,0xFF
8.9466342500,0,0x00,0x48
8.9487684000,0,0x64,0x00
8.9500576000,0,0xFF,0x64
8.9514494500,0,0x40,0xFF
8.9529532000,0,0x00,0x40
8.9541569000,0,0x65,0x00
8.9555670000,0,0xFF,0x65
8.9567949000,0,0x48,0xFF
8.9580094500,0,0x00,0x48
8.9594285000,0,0x65,0x00
8.9608202000,0,0xFF,0x65
8.9622419000,0,0x40,0xFF
8.9642320500,0,0x00,0x40
8.9652580000,0,0x66,0x00
8.9669706000,0,0xFF,0x66
8.9684335500,0,0x48,0xFF
8.9702955500,0,0x00,0x48
8.9713964000,0,0x66,0x00
8.9726291500,0,0xFF,0x66
8.9738286000,0,0x40,0xFF
8.9752564500,0,0x00,0x40
8.9762819500,0,0x67,0x00
8.9775566000,0,0xFF,0x67
8.9792397000,0,0x48,0xFF
8.9813452500,0,0x00,0x48
8.9829716500,0,0x67,0x00
8.9850950000,0,0xFF,0x67
8.9872336500,0,0x40,0xFF
8.9886347000,0,0x00,0x40
8.9901648000,0,0x68,0x00
8.9911884000,0,0xFF,0x68
8.9932186000,0,0x48,0xFF
8.9952031000,0,0x00,0x48
8.9972211500,0,0x68,0x00
8.9992225000,0,0xFF,0x68
9.0009702500,0,0x40,0xFF
9.0027617500,0,0x00,0x40
9.0046300500,0,0x69,0x00
9.0066298000,0,0xFF,0x69
9.0086512500,0,0x48,0xFF
9.0103653500,0,0x00,0x48
9.0118857000,0,0x69,0x00
9.0137773000,0,0xFF,0x69
9.0157810500,0,0x40,0xFF
9.0175084000,0,0x00,0x40
9.0193642000,0,0x6A,0x00
9.0213560500,0,0xFF,0x6A
9.0233506500,0,0x48,0xFF
9.0254233500,0,0x00,0x48
9.0274076000,0,0x6A,0x00
9.0294023500,0,0xFF,0x6A
9.0314289000,0,0x40,0xFF
9.0334775500,0,0x00,0x40
9.0356299000,0,0x6B,0x00
9.0376297000,0,0xFF,0x6B
9.0396514000,0,0x48,0xFF
9.0416348000,0,0x00,0x48
9.0436300000,0,0x6B,0x00
9.0456299500,0,0xFF,0x6B
9.0479276500,0,0x40,0xFF
9.0500850500,0,0x00,0x40
9.0519786500,0,0x6C,0x00
9.0538146000,0,0xFF,0x6C
9.0548585500,0,0x48,0xFF
9.0562837000,0,0x00,0x48
9.0580106500,0,0x6C,0x00
9.0602877500,0,0xFF,0x6C
9.0613333500,0,0x40,0xFF
9.0630132000,0,0x00,0x40
9.0649212000,0,0x6D,0x00
9.0667774500,0,0xFF,0x6D
9.0688030000,0,0x48,0xFF
9.0707864500,0,0x00,0x48
9.0721387000,0,0x6D,0x00
9.0733268000,0,0xFF,0x6D
9.0745443000,0,0x40,0xFF
9.0759785500,0,0x00,0x40
9.0776428500,0,0x6E,0x00
9.0789311000,0,0xFF,0x6E
9.0802827000,0,0x48,0xFF
9.0816345500,0,0x00,0x48
9.0834630500,0,0x6E,0x00
9.0850456500,0,0xFF,0x6E
9.0869070000,0,0x40,0xFF
9.0891483500,0,0x00,0x40
9.0910192000,0,0x6F,0x00
9.0933807500,0,0xFF,0x6F
9.0951063500,0,0x48,0xFF
9.0969121000,0,0x00,0x48
9.0987577000,0,0x6F,0x00
9.1006295500,0,0xFF,0x6F
9.1026523000,0,0x40,0xFF
9.1046351000,0,0x00,0x40
9.1065072000,0,0x70,0x00
9.1085123000,0,0xFF,0x70
9.1107153000,0,0x48,0xFF
9.1124429000,0,0x00,0x48
9.1141978500,0,0x70,0x00
9.1161986000,0,0xFF,0x70
9.1180824000,0,0x40,0xFF
9.1198025000,0,0x00,0x40
9.1217706000,0,0x71,0x00
9.1237698500,0,0xFF,0x71
9.1257913000,0,0x48,0xFF
9.1277939000,0,0x00,0x48
9.1299101000,0,0x71,0x00
9.1320497000,0,0xFF,0x71
9.1340712000,0,0x40,0xFF
9.1361949000,0,0x00,0x40
9.1383561500,0,0x72,0x00
9.1403569500,0,0xFF,0x72
9.1423782000,0,0x48,0xFF
9.1443587000,0,0x00,0x48
9.1464224000,0,0x72,0x00
9.1484007000,0,0xFF,0x72
9.1504915500,0,0x40,0xFF
9.1524754000,0,0x00,0x40
9.1544703000,0,0x73,0x00
9.1564701000,0,0xFF,0x73
9.1584967500,0,0x48,0xFF
9.1604427000,0,0x00,0x48
9.1624039000,0,0x73,0x00
9.1644755000,0,0xFF,0x73
9.1664461000,0,0x40,0xFF
9.1683174500,0,0x00,0x40
9.1696919500,0,0x74,0x00
9.1714942500,0,0xFF,0x74
9.1733032500,0,0x48,0xFF
9.1745073500,0,0x00,0x48
9.1757557500,0,0x74,0x00
9.1767796000,0,0xFF,0x74
9.1782624500,0,0x40,0xFF
9.1804586500,0,0x00,0x40
9.1824492500,0,0x75,0x00
9.1841556000,0,0xFF,0x75
9.1852597000,0,0x48,0xFF
9.1870010500,0,0x00,0x48
9.1883321500,0,0x75,0x00
9.1902036500,0,0xFF,0x75
9.1921401000,0,0x40,0xFF
9.1931691000,0,0x00,0x40
9.1946842000,0,0x76,0x00
9.1959480500,0,0xFF,0x76
9.1976516500,0,0x48,0xFF
9.1986838500,0,0x00,0x48
9.2003477500,0,0x76,0x00
9.2014626000,0,0xFF,0x76
9.2029738500,0,0x40,0xFF
9.2043371500,0,0x00,0x40
9.2054949500,0,0x77,0x00
9.2067682500,0,0xFF,0x77
9.2083106500,0,0x48,0xFF
9.2098892000,0,0x00,0x48
9.2118592000,0,0x77,0x00
9.2138119500,0,0xFF,0x77
9.2158340500,0,0x40,0xFF
9.2179762500,0,0x00,0x40
9.2197724500,0,0x78,0x00
9.2216305500,0,0xFF,0x78
9.2233090500,0,0x48,0xFF
9.2250201000,0,0x00,0x48
9.2260443500,0,0x78,0x00
9.2274523500,0,0xFF,0x78
9.2284975500,0,0x40,0xFF
9.2307831500,0,0x00,0x40
9.2327705500,0,0x79,0x00
9.2347703500,0,0xFF,0x79
9.2369528500,0,0x48,0xFF
9.2389151500,0,0x00,0x48
9.2410706500,0,0x79,0x00
9.2431994000,0,0xFF,0x79
9.2453286000,0,0x40,0xFF
9.2474777000,0,0x00,0x40
9.2494845500,0,0x7A,0x00
9.2514843500,0,0xFF,0x7A
9.2536477000,0,0x48,0xFF
9.2556358000,0,0x00,0x48
9.2577907500,0,0x7A,0x00
9.2597705000,0,0xFF,0x7A
9.2619320000,0,0x40,0xFF
9.2640815500,0,0x00,0x40
9.2660782000,0,0x7B,0x00
9.2680739000,0,0xFF,0x7B
9.2697993500,0,0x48,0xFF
9.2711561000,0,0x00,0x48
9.2724339500,0,0x7B,0x00
9.2736312000,0,0xFF,0x7B
9.2752895500,0,0x40,0xFF
9.2763325000,0,0x00,0x40
9.2774101000,0,0x7C,0x00
9.2784342000,0,0xFF,0x7C
9.2795568500,0,0x48,0xFF
9.2806257000,0,0x00,0x48
9.2816874500,0,0x7C,0x00
9.2827486500,0,0xFF,0x7C
9.2838713000,0,0x40,0xFF
9.2849999000,0,0x00,0x40
9.2861037500,0,0x7D,0x00
9.2871727000,0,0xFF,0x7D
9.2883037000,0,0x48,0xFF
9.2893513000,0,0x00,0x48
9.2904234500,0,0x7D,0x00
9.2914953000,0,0xFF,0x7D
9.2925784000,0,0x40,0xFF
9.2936874000,0,0x00,0x40
9.2947541500,0,0x7E,0x00
9.2958156000,0,0xFF,0x7E
9.2968982500,0,0x48,0xFF
9.2979879500,0,0x00,0x48
9.2990505500,0,0x7E,0x00
9.3001132000,0,0xFF,0x7E
9.3011596500,0,0x40,0xFF
9.3021886500,0,0x00,0x40
9.3032504000,0,0x7F,0x00
9.3042971000,0,0xFF,0x7F
9.3053464500,0,0x48,0xFF
9.3063753000,0,0x00,0x48
9.3074370500,0,0x7F,0x00
9.3085037000,0,0xFF,0x7F
9.3096447500,0,0x4C,0xFF
9.3107542500,0,0x00,0x4C
9.3118210000,0,0x7F,0x00
9.3128820000,0,0x00,0x7F
9.3217548500,0,0x20,0x00
9.3228582500,0,0x00,0x20
9.3239227000,0,0x00,0x00
9.3250001000,0,0x00,0x0C
9.3261191500,0,0x28,0x00
9.3272397500,0,0x00,0x28
9.3283015000,0,0x00,0x00
9.3293734000,0,0x00,0x94
9.3304497000,0,0x20,0x00
9.3315570000,0,0x00,0x20
9.3326213000,0,0x01,0x00
9.3336830500,0,0x00,0x34
9.3348048000,0,0x28,0x00
9.3358690500,0,0x00,0x28
9.3369308000,0,0x01,0x00
9.3379938500,0,0x00,0x00
9.3390741000,0,0x20,0x00
9.3401783500,0,0x00,0x20
9.3412401000,0,0x02,0x00
9.3423068500,0,0x00,0x0C
9.3433834000,0,0x28,0x00
9.3444878000,0,0x00,0x28
9.3455566500,0,0x02,0x00
9.3466215000,0,0x00,0x94
9.3477034500,0,0x20,0x00
9.3488077000,0,0x00,0x20
9.3498748500,0,0x03,0x00
9.3509418500,0,0x00,0x3E
9.3520582000,0,0x28,0x00
9.3531279000,0,0x00,0x28
9.3541896500,0,0x03,0x00
9.3552512500,0,0x00,0x00
9.3566845000,0,0x20,0x00
9.3577572500,0,0x00,0x20
9.3589166000,0,0x04,0x00
9.3599389500,0,0x00,0x0C
9.3610665500,0,0x28,0x00
9.3621756500,0,0x00,0x28
9.3632402500,0,0x04,0x00
9.3643526500,0,0x00,0x94
9.3654210000,0,0x20,0x00
9.3664931000,0,0x00,0x20
9.3675569500,0,0x05,0x00
9.3686169000,0,0x00,0x3E
9.3696554000,0,0x28,0x00
9.3706959000,0,0x00,0x28
9.3717629000,0,0x05,0x00
9.3728140000,0,0x00,0x00
9.3738903500,0,0x20,0x00
9.3749467500,0,0x00,0x20
9.3760083500,0,0x06,0x00
9.3770594000,0,0x00,0x0C
9.3781354500,0,0x28,0x00
9.3792775000,0,0x00,0x28
9.3803657500,0,0x06,0x00
9.3814275000,0,0x00,0x94
9.3825037500,0,0x20,0x00
9.3835707000,0,0x00,0x20
9.3846768500,0,0x07,0x00
9.3857474500,0,0x00,0x3E
9.3868692000,0,0x28,0x00
9.3879335000,0,0x00,0x28
9.3890060500,0,0x07,0x00
9.3901102500,0,0x00,0x00
9.3914251000,0,0x20,0x00
9.3924934500,0,0x00,0x20
9.3935608000,0,0x08,0x00
9.3946300500,0,0x00,0x0C
9.3957089500,0,0x28,0x00
9.3967600500,0,0x00,0x28
9.3978221000,0,0x08,0x00
9.3989314000,0,0x00,0x94
9.3999703500,0,0x20,0x00
9.4010108500,0,0x00,0x20
9.4020355500,0,0x09,0x00
9.4031089000,0,0x00,0x3E
9.4041466500,0,0x28,0x00
9.4052405000,0,0x00,0x28
9.4062647500,0,0x09,0x00
9.4073636000,0,0x00,0x00
9.4084399500,0,0x20,0x00
9.4095070000,0,0x00,0x20
9.4105580500,0,0x0A,0x00
9.4116462000,0,0x00,0x0C
9.4127014500,0,0x28,0x00
9.4137682500,0,0x00,0x28
9.4147980000,0,0x0A,0x00
9.4158597500,0,0x00,0x94
9.4169199500,0,0x20,0x00
9.4180082500,0,0x00,0x20
9.4190329500,0,0x0B,0x00
9.4200728500,0,0x00,0x3E
9.4212269500,0,0x28,0x00
9.4223016500,0,0x00,0x28
9.4233635000,0,0x0B,0x00
9.4244730000,0,0x00,0x00
9.4259652000,0,0x20,0x00
9.4270484500,0,0x00,0x20
9.4281133000,0,0x0C,0x00
9.4291504500,0,0x00,0x0C
9.4302509500,0,0x28,0x00
9.4313152500,0,0x00,0x28
9.4323770000,0,0x0C,0x00
9.4334437500,0,0x00,0x94
9.4345725000,0,0x20,0x00
9.4356887000,0,0x00,0x20
9.4367450500,0,0x0D,0x00
9.4378172000,0,0x00,0x3E
9.4389285500,0,0x28,0x00
9.4400489000,0,0x00,0x28
9.4411131500,0,0x0D,0x00
9.4421833500,0,0x00,0x00
9.4433017500,0,0x20,0x00
9.4443712000,0,0x00,0x20
9.4454385500,0,0x0E,0x00
9.4465105500,0,0x00,0x0C
9.4476273000,0,0x28,0x00
9.4487422500,0,0x00,0x28
9.4498065000,0,0x0E,0x00
9.4508679000,0,0x00,0x94
9.4519847000,0,0x20,0x00
9.4530549500,0,0x00,0x20
9.4541158500,0,0x0F,0x00
9.4551775500,0,0x00,0x3E
9.4562939000,0,0x28,0x00
9.4573740000,0,0x00,0x28
9.4584359000,0,0x0F,0x00
9.4595027500,0,0x00,0x00
9.4609632500,0,0x20,0x00
9.4620089500,0,0x00,0x20
9.4630707000,0,0x10,0x00
9.4641724500,0,0x00,0x0C
9.4653021500,0,0x28,0x00
9.4663822500,0,0x00,0x28
9.4674812500,0,0x10,0x00
9.4685640000,0,0x00,0x94
9.4696407000,0,0x20,0x00
9.4706916000,0,0x00,0x20
9.4717588000,0,0x11,0x00
9.4728204000,0,0x00,0x3E
9.4739421500,0,0x28,0x00
9.4750465500,0,0x00,0x28
9.4760896000,0,0x11,0x00
9.4771566000,0,0x00,0x00
9.4782727500,0,0x20,0x00
9.4793974500,0,0x00,0x20
9.4804949500,0,0x12,0x00
9.4815564000,0,0x00,0x0C
9.4826326500,0,0x28,0x00
9.4836890000,0,0x00,0x28
9.4847508500,0,0x12,0x00
9.4858069000,0,0x00,0x94
9.4868927000,0,0x20,0x00
9.4879853000,0,0x00,0x20
9.4891124500,0,0x13,0x00
9.4901751500,0,0x00,0x3E
9.4912595000,0,0x28,0x00
9.4923611500,0,0x00,0x28
9.4934068500,0,0x13,0x00
9.4944896500,0,0x00,0x00
9.4959097000,0,0x20,0x00
9.4969881000,0,0x00,0x20
9.4980523500,0,0x14,0x00
9.4991298000,0,0x00,0x0C
9.5003051500,0,0x28,0x00
9.5013744000,0,0x00,0x28
9.5024788500,0,0x14,0x00
9.5035618500,0,0x00,0x94
9.5046836000,0,0x20,0x00
9.5057638500,0,0x00,0x20
9.5068642000,0,0x15,0x00
9.5079460500,0,0x00,0x3E
9.5090624000,0,0x28,0x00
9.5101320500,0,0x00,0x28
9.5112455000,0,0x15,0x00
9.5123140000,0,0x00,0x00
9.5133984500,0,0x20,0x00
9.5145001000,0,0x00,0x20
9.5155565500,0,0x16,0x00
9.5166287000,0,0x00,0x0C
9.5176997500,0,0x28,0x00
9.5187736500,0,0x00,0x28
9.5198340000,0,0x16,0x00
9.5208739500,0,0x00,0x94
9.5219586000,0,0x20,0x00
9.5230015500,0,0x00,0x20
9.5240683500,0,0x17,0x00
9.5251300500,0,0x00,0x3E
9.5262257500,0,0x28,0x00
9.5273373000,0,0x00,0x28
9.5283671000,0,0x17,0x00
9.5294341000,0,0x00,0x00
9.5310727000,0,0x20,0x00
9.5321748500,0,0x00,0x20
9.5332365500,0,0x18,0x00
9.5342766500,0,0x00,0x0C
9.5353746500,0,0x28,0x00
9.5364361500,0,0x00,0x28
9.5374981000,0,0x18,0x00
9.5385650000,0,0x00,0x94
9.5397052500,0,0x20,0x00
9.5407511000,0,0x00,0x20
9.5418126500,0,0x19,0x00
9.5428741500,0,0x00,0x3E
9.5439909000,0,0x28,0x00
9.5450601500,0,0x00,0x28
9.5461219000,0,0x19,0x00
9.5471837500,0,0x00,0x00
9.5483001000,0,0x20,0x00
9.5493698000,0,0x00,0x20
9.5504313000,0,0x1A,0x00
9.5514983000,0,0x00,0x0C
9.5525748000,0,0x28,0x00
9.5536818500,0,0x00,0x28
9.5547569000,0,0x1A,0x00
9.5558185000,0,0x00,0x94
9.5569348500,0,0x20,0x00
9.5580499500,0,0x00,0x20
9.5591250500,0,0x1B,0x00
9.5601544000,0,0x00,0x3E
9.5612495000,0,0x28,0x00
9.5623191500,0,0x00,0x28
9.5633809000,0,0x1B,0x00
9.5644423500,0,0x00,0x00
9.5659171000,0,0x20,0x00
9.5669886000,0,0x00,0x20
9.5681064500,0,0x1C,0x00
9.5691708000,0,0x00,0x0C
9.5703005000,0,0x28,0x00
9.5713735000,0,0x00,0x28
9.5724050000,0,0x1C,0x00
9.5734931000,0,0x00,0x94
9.5745729500,0,0x20,0x00
9.5756901000,0,0x00,0x20
9.5767569500,0,0x1D,0x00
9.5778186500,0,0x00,0x3E
9.5789429000,0,0x28,0x00
9.5800206000,0,0x00,0x28
9.5811086000,0,0x1D,0x00
9.5821599500,0,0x00,0x00
9.5832201000,0,0x20,0x00
9.5842502000,0,0x00,0x20
9.5853522000,0,0x1E,0x00
9.5864320500,0,0x00,0x0C
9.5875137500,0,0x28,0x00
9.5885647500,0,0x00,0x28
9.5896851000,0,0x1E,0x00
9.5907466000,0,0x00,0x94
9.5918684500,0,0x20,0x00
9.5929383000,0,0x00,0x20
9.5940000500,0,0x1F,0x00
9.5951018000,0,0x00,0x3E
9.5961871500,0,0x28,0x00
9.5972927500,0,0x00,0x28
9.5983679000,0,0x1F,0x00
9.5994296000,0,0x00,0x00
9.6008043000,0,0x20,0x00
9.6018341000,0,0x00,0x20
9.6029280500,0,0x20,0x00
9.6039520500,0,0x00,0x0C
9.6049910500,0,0x28,0x00
9.6060741000,0,0x00,0x28
9.6071358500,0,0x20,0x00
9.6081601000,0,0x00,0x94
9.6092739500,0,0x20,0x00
9.6103516000,0,0x00,0x20
9.6113759000,0,0x21,0x00
9.6124747500,0,0x00,0x3E
9.6135735000,0,0x28,0x00
9.6146876000,0,0x00,0x28
9.6157493500,0,0x21,0x00
9.6168217500,0,0x00,0x00
9.6178978500,0,0x20,0x00
9.6189947000,0,0x00,0x20
9.6200215500,0,0x22,0x00
9.6210724500,0,0x00,0x0C
9.6221834000,0,0x28,0x00
9.6232478500,0,0x00,0x28
9.6242990000,0,0x22,0x00
9.6253230000,0,0x00,0x94
9.6263620500,0,0x20,0x00
9.6274396000,0,0x00,0x20
9.6284640500,0,0x23,0x00
9.6295584000,0,0x00,0x3E
9.6305965500,0,0x28,0x00
9.6316906500,0,0x00,0x28
9.6327149000,0,0x23,0x00
9.6338190000,0,0x00,0x00
9.6352274500,0,0x20,0x00
9.6362560500,0,0x00,0x20
9.6373601500,0,0x24,0x00
9.6384273000,0,0x00,0x0C
9.6395036500,0,0x28,0x00
9.6406240000,0,0x00,0x28
9.6416856500,0,0x24,0x00
9.6427823500,0,0x00,0x94
9.6438927000,0,0x20,0x00
9.6449494500,0,0x00,0x20
9.6460055500,0,0x25,0x00
9.6471182500,0,0x00,0x3E
9.6482370500,0,0x28,0x00
9.6493121500,0,0x00,0x28
9.6503739000,0,0x25,0x00
9.6514084500,0,0x00,0x00
9.6525063500,0,0x20,0x00
9.6536268500,0,0x00,0x20
9.6547393000,0,0x26,0x00
9.6557659000,0,0x00,0x0C
9.6568261500,0,0x28,0x00
9.6579306500,0,0x00,0x28
9.6589924000,0,0x26,0x00
9.6600592500,0,0x00,0x94
9.6611759500,0,0x20,0x00
9.6622188500,0,0x00,0x20
9.6632967000,0,0x27,0x00
9.6643688000,0,0x00,0x3E
9.6654450500,0,0x28,0x00
9.6665120000,0,0x00,0x28
9.6676219000,0,0x27,0x00
9.6686886000,0,0x00,0x00
9.6700558500,0,0x20,0x00
9.6711766000,0,0x00,0x20
9.6722459000,0,0x28,0x00
9.6732810000,0,0x00,0x0C
9.6743852500,0,0x28,0x00
9.6754509000,0,0x00,0x28
9.6765585000,0,0x28,0x00
9.6776222000,0,0x00,0x94
9.6787492000,0,0x20,0x00
9.6798190500,0,0x00,0x20
9.6808862000,0,0x29,0x00
9.6819902500,0,0x00,0x3E
9.6830802500,0,0x28,0x00
9.6841124000,0,0x00,0x28
9.6851740000,0,0x29,0x00
9.6861982000,0,0x00,0x00
9.6873577000,0,0x20,0x00
9.6883952000,0,0x00,0x20
9.6894514000,0,0x2A,0x00
9.6904970500,0,0x00,0x0C
9.6915841500,0,0x28,0x00
9.6926138500,0,0x00,0x28
9.6936863500,0,0x2A,0x00
9.6947478500,0,0x00,0x94
9.6958935500,0,0x20,0x00
9.6969229500,0,0x00,0x20
9.6980277000,0,0x2B,0x00
9.6990516500,0,0x00,0x3E
9.7001281500,0,0x28,0x00
9.7012378500,0,0x00,0x28
9.7023004000,0,0x2B,0x00
9.7033609500,0,0x00,0x00
9.7046474500,0,0x20,0x00
9.7056912000,0,0x00,0x20
9.7067476500,0,0x2C,0x00
9.7078145500,0,0x00,0x0C
9.7088909000,0,0x28,0x00
9.7099873500,0,0x00,0x28
9.7111156000,0,0x2C,0x00
9.7121770000,0,0x00,0x94
9.7132670500,0,0x20,0x00
9.7143418500,0,0x00,0x20
9.7153982000,0,0x2D,0x00
9.7164917500,0,0x00,0x3E
9.7175736500,0,0x28,0x00
9.7186811000,0,0x00,0x28
9.7197503500,0,0x2D,0x00
9.7208174500,0,0x00,0x00
9.7219338000,0,0x20,0x00
9.7229980500,0,0x00,0x20
9.7241106500,0,0x2E,0x00
9.7251746500,0,0x00,0x0C
9.7262510000,0,0x28,0x00
9.7273659000,0,0x00,0x28
9.7284386500,0,0x2E,0x00
9.7294947000,0,0x00,0x94
9.7306220500,0,0x20,0x00
9.7316703000,0,0x00,0x20
9.7326946500,0,0x2F,0x00
9.7337985000,0,0x00,0x3E
9.7348781500,0,0x28,0x00
9.7359931000,0,0x00,0x28
9.7370465000,0,0x2F,0x00
9.7380707000,0,0x00,0x00
9.7394366000,0,0x20,0x00
9.7405020500,0,0x00,0x20
9.7415588000,0,0x30,0x00
9.7426316500,0,0x00,0x0C
9.7437475500,0,0x28,0x00
9.7448276500,0,0x00,0x28
9.7459267500,0,0x30,0x00
9.7469510000,0,0x00,0x94
9.7481155500,0,0x20,0x00
9.7491958000,0,0x00,0x20
9.7502999000,0,0x31,0x00
9.7513617500,0,0x00,0x3E
9.7524484000,0,0x28,0x00
9.7535560000,0,0x00,0x28
9.7546202500,0,0x31,0x00
9.7556921000,0,0x00,0x00
9.7568088500,0,0x20,0x00
9.7578891000,0,0x00,0x20
9.7589882000,0,0x32,0x00
9.7601082500,0,0x00,0x0C
9.7611876500,0,0x28,0x00
9.7623159000,0,0x00,0x28
9.7633827000,0,0x32,0x00
9.7644817500,0,0x00,0x94
9.7655741000,0,0x20,0x00
9.7666813000,0,0x00,0x20
9.7677455500,0,0x33,0x00
9.7688122500,0,0x00,0x3E
9.7699344000,0,0x28,0x00
9.7710493500,0,0x00,0x28
9.7721136000,0,0x33,0x00
9.7731848500,0,0x00,0x00
9.7746865500,0,0x20,0x00
9.7757559500,0,0x00,0x20
9.7768231500,0,0x34,0x00
9.7779248000,0,0x00,0x11
9.7790063500,0,0x28,0x00
9.7801162500,0,0x00,0x28
9.7811909500,0,0x34,0x00
9.7823030500,0,0x00,0x24
9.7833822000,0,0x20,0x00
9.7844493000,0,0x00,0x20
9.7855112000,0,0x35,0x00
9.7865725000,0,0x00,0x1F
9.7877167500,0,0x28,0x00
9.7888175000,0,0x00,0x28
9.7898842500,0,0x35,0x00
9.7909405500,0,0x00,0xBE
9.7920437000,0,0x20,0x00
9.7931778000,0,0x00,0x20
9.7942043000,0,0x36,0x00
9.7952979000,0,0x00,0xCF
9.7963850000,0,0x28,0x00
9.7974201000,0,0x00,0x28
9.7984765000,0,0x36,0x00
9.7995569500,0,0x00,0xEF
9.8006411000,0,0x20,0x00
9.8017079500,0,0x00,0x20
9.8027484000,0,0x37,0x00
9.8038153000,0,0x00,0xD4
9.8049372500,0,0x28,0x00
9.8060014000,0,0x00,0x28
9.8070687500,0,0x37,0x00
9.8081705500,0,0x00,0xE0
9.8096855500,0,0x20,0x00
9.8108579000,0,0x00,0x20
9.8119326500,0,0x38,0x00
9.8129942500,0,0x00,0xDE
9.8140332500,0,0x28,0x00
9.8150737000,0,0x00,0x28
9.8160979500,0,0x38,0x00
9.8171330500,0,0x00,0xBF
9.8181720500,0,0x20,0x00
9.8192015500,0,0x00,0x20
9.8202262000,0,0x39,0x00
9.8212983000,0,0x00,0xCD
9.8223747500,0,0x28,0x00
9.8234363500,0,0x00,0x28
9.8244716000,0,0x39,0x00
9.8255592000,0,0x00,0xBF
9.8266760500,0,0x20,0x00
9.8277457000,0,0x00,0x20
9.8288127000,0,0x3A,0x00
9.8298368000,0,0x00,0x0E
9.8309321500,0,0x28,0x00
9.8319591500,0,0x00,0x28
9.8330580000,0,0x3A,0x00
9.8341197000,0,0x00,0x94
9.8351962000,0,0x20,0x00
9.8362419500,0,0x00,0x20
9.8372983000,0,0x3B,0x00
9.8383652500,0,0x00,0x40
9.8394415000,0,0x28,0x00
9.8405641500,0,0x00,0x28
9.8416290000,0,0x3B,0x00
9.8426958500,0,0x00,0x00
9.8451630500,0,0x20,0x00
9.8462046500,0,0x00,0x20
9.8472396500,0,0x3C,0x00
9.8482638500,0,0x00,0x0C
9.8493642500,0,0x28,0x00
9.8503967500,0,0x00,0x28
9.8514318500,0,0x3C,0x00
9.8524932000,0,0x00,0x94
9.8535724500,0,0x20,0x00
9.8546767000,0,0x00,0x20
9.8557462500,0,0x3D,0x00
9.8568505000,0,0x00,0x56
9.8580046000,0,0x28,0x00
9.8591141000,0,0x00,0x28
9.8601892000,0,0x3D,0x00
9.8612507000,0,0x00,0x00
9.8623724500,0,0x20,0x00
9.8634420500,0,0x00,0x20
9.8645592500,0,0x3E,0x00
9.8656241000,0,0x00,0x0C
9.8667458500,0,0x28,0x00
9.8678101000,0,0x00,0x28
9.8688827000,0,0x3E,0x00
9.8699873500,0,0x00,0x94
9.8710703000,0,0x20,0x00
9.8721783000,0,0x00,0x20
9.8732450500,0,0x3F,0x00
9.8743525000,0,0x00,0x00
9.8754525000,0,0x28,0x00
9.8765642500,0,0x00,0x28
9.8776348000,0,0x3F,0x00
9.8787393000,0,0x00,0x00
9.8811931500,0,0x20,0x00
9.8822584000,0,0x00,0x20
9.8833625000,0,0x40,0x00
9.8844294500,0,0x00,0x50
9.8855057000,0,0x28,0x00
9.8865728500,0,0x00,0x28
9.8876933500,0,0x40,0x00
9.8887547000,0,0x00,0x9A
9.8898769000,0,0x20,0x00
9.8909517500,0,0x00,0x20
9.8920512500,0,0x41,0x00
9.8931153500,0,0x00,0x58
9.8942396000,0,0x28,0x00
9.8952878000,0,0x00,0x28
9.8963714500,0,0x41,0x00
9.8974111500,0,0x00,0x98
9.8985086500,0,0x20,0x00
9.8995755500,0,0x00,0x20
9.9006913500,0,0x42,0x00
9.9017575000,0,0x00,0x2F
9.9028742500,0,0x28,0x00
9.9039892000,0,0x00,0x28
9.9051099000,0,0x42,0x00
9.9061764500,0,0x00,0xEF
9.9072584000,0,0x20,0x00
9.9083756500,0,0x00,0x20
9.9094001000,0,0x43,0x00
9.9104937500,0,0x00,0x89
9.9116357000,0,0x28,0x00
9.9126907000,0,0x00,0x28
9.9137468000,0,0x43,0x00
9.9148086500,0,0x00,0xE6
9.9162160000,0,0x20,0x00
9.9172827500,0,0x00,0x20
9.9183282500,0,0x44,0x00
9.9194273500,0,0x00,0x98
9.9204874500,0,0x28,0x00
9.9215627000,0,0x00,0x28
9.9226644000,0,0x44,0x00
9.9237473000,0,0x00,0xE1
9.9248265500,0,0x20,0x00
9.9259356500,0,0x00,0x20
9.9270057500,0,0x45,0x00
9.9280672000,0,0x00,0x21
9.9291648500,0,0x28,0x00
9.9302428500,0,0x00,0x28
9.9313046500,0,0x45,0x00
9.9323660500,0,0x00,0x50
9.9334265000,0,0x20,0x00
9.9344985500,0,0x00,0x20
9.9355657500,0,0x46,0x00
9.9366305000,0,0x00,0x80
9.9377493500,0,0x28,0x00
9.9388240500,0,0x00,0x28
9.9399260500,0,0x46,0x00
9.9410008000,0,0x00,0x40
9.9421280000,0,0x20,0x00
9.9432293500,0,0x00,0x20
9.9442594000,0,0x47,0x00
9.9453208500,0,0x00,0x90
9.9463598500,0,0x28,0x00
9.9474483500,0,0x00,0x28
9.9484727000,0,0x47,0x00
9.9495599000,0,0x00,0x40
9.9513034000,0,0x20,0x00
9.9523762500,0,0x00,0x20
9.9534006500,0,0x48,0x00
9.9544353500,0,0x00,0xE1
9.9554903500,0,0x28,0x00
9.9565648500,0,0x00,0x28
9.9576247000,0,0x48,0x00
9.9586862000,0,0x00,0xF7
9.9598080000,0,0x20,0x00
9.9608351500,0,0x00,0x20
9.9619129000,0,0x49,0x00
9.9630062500,0,0x00,0x00
9.9641251000,0,0x28,0x00
9.9652504500,0,0x00,0x28
9.9663516500,0,0x49,0x00
9.9674382000,0,0x00,0xC0
9.9685751500,0,0x20,0x00
9.9696806500,0,0x00,0x20
9.9707607500,0,0x4A,0x00
9.9718172000,0,0x00,0x00
9.9729335500,0,0x28,0x00
9.9740028000,0,0x00,0x28
9.9750647000,0,0x4A,0x00
9.9761710000,0,0x00,0x00
9.9772535500,0,0x20,0x00
9.9783313500,0,0x00,0x20
9.9794276500,0,0x4B,0x00
9.9804782500,0,0x00,0x58
9.9815750500,0,0x28,0x00
9.9826912000,0,0x00,0x28
9.9837584000,0,0x4B,0x00
9.9848196500,0,0x00,0x9A
9.9862579000,0,0x20,0x00
9.9873684000,0,0x00,0x20
9.9884303500,0,0x4C,0x00
9.9894919500,0,0x00,0x2F
9.9905751000,0,0x28,0x00
9.9916808500,0,0x00,0x28
9.9927505500,0,0x4C,0x00
9.9938173000,0,0x00,0xEF
9.9949390500,0,0x20,0x00
9.9960437500,0,0x00,0x20
9.9971139500,0,0x4D,0x00
9.9981372500,0,0x00,0x89
9.9991763000,0,0x28,0x00
10.0003073500,0,0x00,0x28
10.0013690500,0,0x4D,0x00
10.0024305000,0,0x00,0xE6
10.0034855000,0,0x20,0x00
10.0045634000,0,0x00,0x20
10.0056198500,0,0x4E,0x00
10.0066815000,0,0x00,0x98
10.0077631000,0,0x28,0x00
10.0088193000,0,0x00,0x28
10.0098864500,0,0x4E,0x00
10.0109480500,0,0x00,0xE1
10.0120701500,0,0x20,0x00
10.0131606500,0,0x00,0x20
10.0142385000,0,0x4F,0x00
10.0152627000,0,0x00,0x21
10.0164059500,0,0x28,0x00
10.0174753500,0,0x00,0x28
10.0185692000,0,0x4F,0x00
10.0196201500,0,0x00,0x50
10.0211102500,0,0x20,0x00
10.0221826000,0,0x00,0x20
10.0232518500,0,0x50,0x00
10.0243188500,0,0x00,0x80
10.0253846000,0,0x28,0x00
10.0264409500,0,0x00,0x28
10.0274814000,0,0x50,0x00
10.0285602500,0,0x00,0x40
10.0296352500,0,0x20,0x00
10.0306808500,0,0x00,0x20
10.0317480000,0,0x51,0x00
10.0328094500,0,0x00,0x90
10.0338913500,0,0x28,0x00
10.0350063000,0,0x00,0x28
10.0360894000,0,0x51,0x00
10.0371723000,0,0x00,0x40
10.0382782500,0,0x20,0x00
10.0393584000,0,0x00,0x20
10.0404093500,0,0x52,0x00
10.0414976000,0,0x00,0xE1
10.0426783500,0,0x28,0x00
10.0437531500,0,0x00,0x28
10.0448150500,0,0x52,0x00
10.0458990000,0,0x00,0xF7
10.0469581500,0,0x20,0x00
10.0480601000,0,0x00,0x20
10.0491562500,0,0x53,0x00
10.0502498500,0,0x00,0x00
10.0513448500,0,0x28,0x00
10.0524359500,0,0x00,0x28
10.0535590500,0,0x53,0x00
10.0546230000,0,0x00,0xC0
10.0560402500,0,0x20,0x00
10.0570881500,0,0x00,0x20
10.0581710000,0,0x54,0x00
10.0592097500,0,0x00,0x00
10.0602967000,0,0x28,0x00
10.0614333000,0,0x00,0x28
10.0624952000,0,0x54,0x00
10.0635605000,0,0x00,0x00
10.0647024000,0,0x20,0x00
10.0657411000,0,0x00,0x20
10.0668111000,0,0x55,0x00
10.0678765000,0,0x00,0xEB
10.0689933000,0,0x28,0x00
10.0701190500,0,0x00,0x28
10.0711883000,0,0x55,0x00
10.0722500000,0,0x00,0xCF
10.0733771500,0,0x20,0x00
10.0744413500,0,0x00,0x20
10.0755604500,0,0x56,0x00
10.0766233500,0,0x00,0xF8
10.0777505500,0,0x28,0x00
10.0788202000,0,0x00,0x28
10.0798817000,0,0x56,0x00
10.0809883000,0,0x00,0x94
10.0821052500,0,0x20,0x00
10.0832422500,0,0x00,0x20
10.0843032000,0,0x57,0x00
10.0853647000,0,0x00,0xFF
10.0864409500,0,0x28,0x00
10.0875137000,0,0x00,0x28
10.0885754500,0,0x57,0x00
10.0896772500,0,0x00,0xCF
10.0910937500,0,0x20,0x00
10.0921772000,0,0x00,0x20
10.0932368500,0,0x58,0x00
10.0942983000,0,0x00,0xFF
10.0953852000,0,0x28,0x00
10.0964950500,0,0x00,0x28
10.0975672500,0,0x58,0x00
10.0986876500,0,0x00,0xFF
10.0998094000,0,0x20,0x00
10.1008780000,0,0x00,0x20
10.1019460000,0,0x59,0x00
10.1030557000,0,0x00,0xFF
10.1041774500,0,0x28,0x00
10.1052259000,0,0x00,0x28
10.1062876500,0,0x59,0x00
10.1073437500,0,0x00,0xFF
10.1084200000,0,0x20,0x00
10.1094819500,0,0x00,0x20
10.1105603500,0,0x5A,0x00
10.1116327000,0,0x00,0xFF
10.1127536000,0,0x28,0x00
10.1138179000,0,0x00,0x28
10.1148965500,0,0x5A,0x00
10.1159409000,0,0x00,0xFF
10.1170229000,0,0x20,0x00
10.1180900000,0,0x00,0x20
10.1191757500,0,0x5B,0x00
10.1202444500,0,0x00,0xFF
10.1213724500,0,0x28,0x00
10.1224047000,0,0x00,0x28
10.1235037500,0,0x5B,0x00
10.1245609000,0,0x00,0xFF
10.1262853500,0,0x20,0x00
10.1273806000,0,0x00,0x20
10.1284796000,0,0x5C,0x00
10.1295609500,0,0x00,0xFF
10.1306789500,0,0x28,0x00
10.1317058000,0,0x00,0x28
10.1327518000,0,0x5C,0x00
10.1338187500,0,0x00,0xFF
10.1348577500,0,0x20,0x00
10.1359462000,0,0x00,0x20
10.1369704500,0,0x5D,0x00
10.1380160500,0,0x00,0xFF
10.1391244500,0,0x28,0x00
10.1402022000,0,0x00,0x28
10.1412586500,0,0x5D,0x00
10.1423201500,0,0x00,0xFF
10.1433591500,0,0x20,0x00
10.1443939500,0,0x00,0x20
10.1454664500,0,0x5E,0x00
10.1464908500,0,0x00,0xFF
10.1475351000,0,0x28,0x00
10.1486262000,0,0x00,0x28
10.1496907500,0,0x5E,0x00
10.1507522500,0,0x00,0xFF
10.1518156500,0,0x20,0x00
10.1528847000,0,0x00,0x20
10.1539092000,0,0x5F,0x00
10.1549493000,0,0x00,0xFF
10.1560606000,0,0x28,0x00
10.1571784000,0,0x00,0x28
10.1582401500,0,0x5F,0x00
10.1593068000,0,0x00,0xFF
10.1606556000,0,0x20,0x00
10.1617542000,0,0x00,0x20
10.1628297000,0,0x60,0x00
10.1638560500,0,0x00,0xFF
10.1649355500,0,0x28,0x00
10.1660102000,0,0x00,0x28
10.1670772500,0,0x60,0x00
10.1681390500,0,0x00,0xFF
10.1692554000,0,0x20,0x00
10.1702822500,0,0x00,0x20
10.1713735000,0,0x61,0x00
10.1724376000,0,0x00,0xFF
10.1735138500,0,0x28,0x00
10.1746213000,0,0x00,0x28
10.1756960000,0,0x61,0x00
10.1767578000,0,0x00,0xFF
10.1778393500,0,0x20,0x00
10.1789436000,0,0x00,0x20
10.1800053500,0,0x62,0x00
10.1810722000,0,0x00,0xFF
10.1821889500,0,0x28,0x00
10.1832586500,0,0x00,0x28
10.1843204000,0,0x62,0x00
10.1853818000,0,0x00,0xFF
10.1864954000,0,0x20,0x00
10.1875657000,0,0x00,0x20
10.1886337000,0,0x63,0x00
10.1896966000,0,0x00,0xFF
10.1908183500,0,0x28,0x00
10.1918826500,0,0x00,0x28
10.1929498000,0,0x63,0x00
10.1940592500,0,0x00,0xFF
10.1953947500,0,0x20,0x00
10.1964960000,0,0x00,0x20
10.1975611000,0,0x64,0x00
10.1986300500,0,0x00,0xFF
10.1997518000,0,0x28,0x00
10.2008160500,0,0x00,0x28
10.2019235000,0,0x64,0x00
10.2029927500,0,0x00,0xFF
10.2041328500,0,0x20,0x00
10.2052375000,0,0x00,0x20
10.2062886000,0,0x65,0x00
10.2073659500,0,0x00,0xFF
10.2084318000,0,0x28,0x00
10.2095041500,0,0x00,0x28
10.2105609000,0,0x65,0x00
10.2116221500,0,0x00,0xFF
10.2127036500,0,0x20,0x00
10.2138079500,0,0x00,0x20
10.2148697000,0,0x66,0x00
10.2159368000,0,0x00,0xFF
10.2170619000,0,0x28,0x00
10.2181282000,0,0x00,0x28
10.2191580500,0,0x66,0x00
10.2202460000,0,0x00,0xFF
10.2213218500,0,0x20,0x00
10.2224267000,0,0x00,0x20
10.2234994500,0,0x67,0x00
10.2245613500,0,0x00,0xFF
10.2256370500,0,0x28,0x00
10.2267628000,0,0x00,0x28
10.2278141500,0,0x67,0x00
10.2289234000,0,0x00,0xFF
10.2314577000,0,0x20,0x00
10.2325604500,0,0x00,0x20
10.2336112000,0,0x68,0x00
10.2346887000,0,0x00,0xFF
10.2357278000,0,0x28,0x00
10.2367575500,0,0x00,0x28
10.2378193500,0,0x68,0x00
10.2388810000,0,0x00,0xFF
10.2399679500,0,0x20,0x00
10.2410137000,0,0x00,0x20
10.2420910500,0,0x69,0x00
10.2431771500,0,0x00,0xFF
10.2442582000,0,0x28,0x00
10.2453631500,0,0x00,0x28
10.2464276000,0,0x69,0x00
10.2474944000,0,0x00,0xFF
10.2485813500,0,0x20,0x00
10.2496868500,0,0x00,0x20
10.2507636000,0,0x6A,0x00
10.2518651500,0,0x00,0xFF
10.2530056500,0,0x28,0x00
10.2541101500,0,0x00,0x28
10.2551829000,0,0x6A,0x00
10.2562462500,0,0x00,0xFF
10.2573630000,0,0x20,0x00
10.2584327000,0,0x00,0x20
10.2594942000,0,0x6B,0x00
10.2605613000,0,0x00,0xFF
10.2616374000,0,0x28,0x00
10.2627448000,0,0x00,0x28
10.2638089000,0,0x6B,0x00
10.2648704000,0,0x00,0xFF
10.2662867500,0,0x20,0x00
10.2673712000,0,0x00,0x20
10.2684385500,0,0x6C,0x00
10.2694999500,0,0x00,0xFF
10.2705765500,0,0x28,0x00
10.2716390500,0,0x00,0x28
10.2726997500,0,0x6C,0x00
10.2737611500,0,0x00,0xFF
10.2748321000,0,0x20,0x00
10.2758834500,0,0x00,0x20
10.2769452000,0,0x6D,0x00
10.2780067000,0,0x00,0xFF
10.2791284500,0,0x28,0x00
10.2801981500,0,0x00,0x28
10.2813076500,0,0x6D,0x00
10.2823691500,0,0x00,0xFF
10.2834458500,0,0x20,0x00
10.2845663500,0,0x00,0x20
10.2856277000,0,0x6E,0x00
10.2866946500,0,0x00,0xFF
10.2878114000,0,0x28,0x00
10.2888915000,0,0x00,0x28
10.2899982500,0,0x6E,0x00
10.2911136500,0,0x00,0xFF
10.2921943500,0,0x20,0x00
10.2932596000,0,0x00,0x20
10.2943670500,0,0x6F,0x00
10.2954360500,0,0x00,0xFF
10.2965177000,0,0x28,0x00
10.2976251500,0,0x00,0x28
10.2986948500,0,0x6F,0x00
10.2998150000,0,0x00,0xFF
10.3012830000,0,0x20,0x00
10.3023689500,0,0x00,0x20
10.3034308500,0,0x70,0x00
10.3045029000,0,0x00,0xFF
10.3055794000,0,0x28,0x00
10.3066303000,0,0x00,0x28
10.3077414000,0,0x70,0x00
10.3088082500,0,0x00,0xFF
10.3098831000,0,0x20,0x00
10.3109129500,0,0x00,0x20
10.3119854500,0,0x71,0x00
10.3130095500,0,0x00,0xFF
10.3141255500,0,0x28,0x00
10.3152540500,0,0x00,0x28
10.3162855000,0,0x71,0x00
10.3173670000,0,0x00,0xFF
10.3184433500,0,0x20,0x00
10.3195104500,0,0x00,0x20
10.3205614500,0,0x72,0x00
10.3216285500,0,0x00,0xFF
10.3227048000,0,0x28,0x00
10.3237613000,0,0x00,0x28
10.3248228500,0,0x72,0x00
10.3258789000,0,0x00,0xFF
10.3269609500,0,0x20,0x00
10.3280119500,0,0x00,0x20
10.3290738000,0,0x73,0x00
10.3300978000,0,0x00,0xFF
10.3311900500,0,0x28,0x00
10.3322894000,0,0x00,0x28
10.3333296500,0,0x73,0x00
10.3343856000,0,0x00,0xFF
10.3367769500,0,0x20,0x00
10.3378038500,0,0x00,0x20
10.3388346500,0,0x74,0x00
10.3398684000,0,0x00,0xFF
10.3409609000,0,0x28,0x00
10.3420628500,0,0x00,0x28
10.3431270000,0,0x74,0x00
10.3441885000,0,0x00,0xFF
10.3453107000,0,0x20,0x00
10.3463801000,0,0x00,0x20
10.3474311500,0,0x75,0x00
10.3484928000,0,0x00,0xFF
10.3496254000,0,0x28,0x00
10.3507001000,0,0x00,0x28
10.3517618500,0,0x75,0x00
10.3528308500,0,0x00,0xFF
10.3539347000,0,0x20,0x00
10.3550552000,0,0x00,0x20
10.3561244500,0,0x76,0x00
10.3571914000,0,0x00,0xFF
10.3583131500,0,0x28,0x00
10.3593828500,0,0x00,0x28
10.3604286000,0,0x76,0x00
10.3614952500,0,0x00,0xFF
10.3625772000,0,0x20,0x00
10.3636923000,0,0x00,0x20
10.3647540500,0,0x77,0x00
10.3658156500,0,0x00,0xFF
10.3669375000,0,0x28,0x00
10.3680231000,0,0x00,0x28
10.3691142500,0,0x77,0x00
10.3701797500,0,0x00,0xFF
10.3719513500,0,0x20,0x00
10.3730150500,0,0x00,0x20
10.3740766500,0,0x78,0x00
10.3751447500,0,0x00,0xFF
10.3762546500,0,0x28,0x00
10.3772815000,0,0x00,0x28
10.3783540000,0,0x78,0x00
10.3794317000,0,0x00,0xFF
10.3804867000,0,0x20,0x00
10.3815669500,0,0x00,0x20
10.3826337000,0,0x79,0x00
10.3836981500,0,0x00,0xFF
10.3848149000,0,0x28,0x00
10.3858846000,0,0x00,0x28
10.3869463500,0,0x79,0x00
10.3880078500,0,0x00,0xFF
10.3891267000,0,0x20,0x00
10.3902044500,0,0x00,0x20
10.3913048000,0,0x7A,0x00
10.3923759000,0,0x00,0xFF
10.3934521500,0,0x28,0x00
10.3945593500,0,0x00,0x28
10.3956346000,0,0x7A,0x00
10.3966957000,0,0x00,0xFF
10.3978178500,0,0x20,0x00
10.3989325500,0,0x00,0x20
10.4000587000,0,0x7B,0x00
10.4011225500,0,0x00,0xFF
10.4022547500,0,0x28,0x00
10.4033194000,0,0x00,0x28
10.4044237000,0,0x7B,0x00
10.4054960000,0,0x00,0xFF
10.4069208000,0,0x20,0x00
10.4079487000,0,0x00,0x20
10.4090582000,0,0x7C,0x00
10.4101197500,0,0x00,0xFF
10.4112150000,0,0x28,0x00
10.4123061500,0,0x00,0x28
10.4133679500,0,0x7C,0x00
10.4144292000,0,0x00,0xFF
10.4155163000,0,0x20,0x00
10.4166376500,0,0x00,0x20
10.4176612000,0,0x7D,0x00
10.4186905000,0,0x00,0xFF
10.4197298500,0,0x28,0x00
10.4207996000,0,0x00,0x28
10.4218317500,0,0x7D,0x00
10.4229227500,0,0x00,0xFF
10.4239643000,0,0x20,0x00
10.4249941500,0,0x00,0x20
10.4260187000,0,0x7E,0x00
10.4270425500,0,0x00,0xFF
10.4280925500,0,0x28,0x00
10.4291435000,0,0x00,0x28
10.4302478500,0,0x7E,0x00
10.4312772500,0,0x00,0xFF
10.4323433000,0,0x20,0x00
10.4334103500,0,0x00,0x20
10.4344559500,0,0x7F,0x00
10.4355015500,0,0x00,0xFF
10.4365779000,0,0x28,0x00
10.4376290000,0,0x00,0x28
10.4386905000,0,0x7F,0x00
10.4397522500,0,0x00,0xFF
