Time [s],Packet ID,MOSI,MISO
4.0653532000,0,0xAC,0x40
4.0658696500,0,0x53,0x04
4.0663862500,0,0x00,0x53
4.0669031500,0,0x00,0x00
4.0692129000,0,0xAC,0x00
4.0697279500,0,0x80,0xAC
4.0702433000,0,0x00,0x80
4.0707577000,0,0x00,0x00
4.0800544500,0,0xAC,0x00
4.0805710500,0,0x53,0xAC
4.0810872500,0,0x00,0x53
4.0816041000,0,0x00,0x00
4.0821537000,0,0x40,0x00
4.0826697500,0,0x00,0x40
4.0831859000,0,0x00,0x00
4.0837051500,0,0x94,0x00
4.0842328000,0,0x48,0x94
4.0847485000,0,0x00,0x48
4.0852641500,0,0x00,0x00
4.0857828000,0,0x0C,0x00
4.0863236000,0,0x40,0x0C
4.0868396000,0,0x00,0x40
4.0873557000,0,0x01,0x00
4.0878746000,0,0x00,0x01
4.0884018500,0,0x48,0x00
4.0889176500,0,0x00,0x48
4.0894339500,0,0x01,0x00
4.0899531000,0,0x34,0x01
4.0904949000,0,0x40,0x34
4.0910111000,0,0x00,0x40
4.0915270000,0,0x02,0x00
4.0920459500,0,0x94,0x02
4.0925741000,0,0x48,0x94
4.0930906000,0,0x00,0x48
4.0936068500,0,0x02,0x00
4.0941253000,0,0x0C,0x02
4.0946662500,0,0x40,0x0C
4.0951820000,0,0x00,0x40
4.0956980000,0,0x03,0x00
4.0962167500,0,0x00,0x03
4.0967445000,0,0x48,0x00
4.0972607500,0,0x00,0x48
4.0977768500,0,0x03,0x00
4.0982956000,0,0x3E,0x03
4.0988365500,0,0x40,0x3E
4.0993525500,0,0x00,0x40
4.0998677000,0,0x04,0x00
4.1007590500,1,0x12,0x25
4.1012858000,1,0x00,0x12
4.1018012500,1,0x01,0x00
4.1023172500,2,0x03,0x01
4.1028360000,2,0x10,0x03
4.1033773500,2,0x00,0x10
4.1038934000,2,0x01,0x00
4.1044086500,2,0x40,0x01
4.1049268500,2,0x12,0x40
4.1054541000,2,0x00,0x12
4.1059696000,2,0x01,0x00
4.1064853500,2,0x4F,0x01
4.1070045500,2,0x90,0x4F
4.1075462500,2,0x00,0x90
4.1080627000,2,0x01,0x00
4.1085794000,2,0xA5,0x01
4.1090988000,2,0x12,0xA5
4.1096263500,2,0x00,0x12
4.1101419500,2,0x01,0x00
4.1106572500,2,0x83,0x01
4.1111758000,2,0x10,0x83
4.1117172500,2,0x00,0x10
4.1122334500,2,0x01,0x00
4.1127491500,2,0xC0,0x01
4.1132676000,2,0x12,0xC0
4.1137951500,2,0x00,0x12
4.1143113500,2,0x01,0x00
4.1148274500,2,0xCF,0x01
4.1153459500,2,0x90,0xCF
4.1158870000,2,0x00,0x90
4.1164029500,2,0x02,0x00
4.1169189000,2,0x25,0x02
4.1174374000,2,0x12,0x25
4.1179640500,2,0x00,0x12
4.1184790000,2,0x02,0x00
4.1189942000,2,0x03,0x02
4.1195127000,2,0x10,0x03
4.1200538500,2,0x00,0x10
4.1205700000,2,0x02,0x00
4.1210861000,2,0x40,0x02
4.1216051500,2,0x12,0x40
4.1221329000,2,0x00,0x12
4.1226492500,2,0x02,0x00
4.1231656500,2,0x4F,0x02
4.1236848500,2,0x90,0x4F
4.1242265000,2,0x00,0x90
4.1247428000,2,0x02,0x00
4.1252587500,2,0xA5,0x02
4.1257766500,2,0x12,0xA5
4.1263032000,2,0x00,0x12
4.1268187000,2,0x02,0x00
4.1273349500,2,0x83,0x02
4.1278543500,2,0x10,0x83
4.1283960500,2,0x00,0x10
4.1289121000,2,0x02,0x00
4.1294280500,2,0xC0,0x02
4.1299469500,2,0x12,0xC0
4.1304748500,2,0x00,0x12
4.1309903500,2,0x02,0x00
4.1315055000,2,0xCF,0x02
4.1320244500,2,0x90,0xCF
4.1325656500,2,0x00,0x90
4.1330815500,2,0x03,0x00
4.1335974500,2,0x25,0x03
4.1341163000,2,0x12,0x25
4.1346441000,2,0x00,0x12
4.1351600000,2,0x03,0x00
4.1356759000,2,0x03,0x03
4.1361948500,3,0x10,0x03
4.1367360500,3,0x00,0x10
4.1372519000,3,0x03,0x00
4.1377678000,3,0x40,0x03
4.1382865000,3,0x12,0x40
4.1388134500,3,0x00,0x12
4.1393292000,3,0x03,0x00
4.1398455000,3,0x4F,0x03
4.1403647500,3,0x90,0x4F
4.1409064000,3,0x00,0x90
4.1414228500,3,0x03,0x00
4.1419390000,3,0xA5,0x03
4.1424582000,3,0x12,0xA5
4.1429856500,3,0x00,0x12
4.1435011500,3,0x03,0x00
4.1440166000,3,0x83,0x03
4.1445349500,3,0x10,0x83
4.1450763500,3,0x00,0x10
4.1455915000,3,0x03,0x00
4.1461064500,3,0xC0,0x03
4.1466248500,3,0x12,0xC0
4.1471523500,3,0x00,0x12
4.1476684500,3,0x03,0x00
4.1481845000,3,0xCF,0x03
4.1487034500,3,0x90,0xCF
4.1492446500,3,0x00,0x90
4.1497596000,3,0x04,0x00
4.1506692000,4,0x44,0x09
4.1511968500,4,0x80,0x44
4.1517125000,4,0x01,0x80
4.1522281500,4,0x00,0x01
4.1527467000,4,0xC4,0x00
4.1532875500,4,0x00,0xC4
4.1538034000,4,0x01,0x00
4.1543191500,4,0x10,0x01
4.1548375500,4,0x04,0x10
4.1553653500,4,0x80,0x04
4.1558815500,4,0x01,0x80
4.1563977000,4,0x13,0x01
4.1569161000,5,0x44,0x13
4.1574568500,5,0x00,0x44
4.1579730500,5,0x01,0x00
4.1584894000,5,0x29,0x01
4.1590089000,5,0x44,0x29
4.1595370000,5,0x80,0x44
4.1600536000,5,0x01,0x80
4.1605700000,5,0x20,0x01
4.1610892500,5,0xC4,0x20
4.1616307500,5,0x00,0xC4
4.1621468500,5,0x01,0x00
4.1626633000,5,0x30,0x01
4.1631815500,5,0x04,0x30
4.1637090000,5,0x80,0x04
4.1642248500,5,0x01,0x80
4.1647404500,5,0x33,0x01
4.1652592500,5,0xE4,0x33
4.1657996500,5,0x00,0xE4
4.1663148000,5,0x01,0x00
4.1668301000,5,0x49,0x01
4.1673490000,5,0x44,0x49
4.1678767500,5,0x80,0x44
4.1683924500,5,0x01,0x80
4.1689082500,5,0x40,0x01
4.1694270500,5,0xC4,0x40
4.1699683000,5,0x00,0xC4
4.1704841000,5,0x01,0x00
4.1710000000,5,0x50,0x01
4.1715189500,5,0x04,0x50
4.1720464000,5,0x80,0x04
4.1725625500,5,0x01,0x80
4.1730788500,5,0x53,0x01
4.1735978500,5,0xE4,0x53
4.1741393500,5,0x00,0xE4
4.1746557500,5,0x01,0x00
4.1751721500,5,0x69,0x01
4.1756915000,6,0x44,0x69
4.1762195000,6,0x80,0x44
4.1767355000,6,0x01,0x80
4.1772518000,6,0x60,0x01
4.1777711500,6,0xC4,0x60
4.1783122000,6,0x00,0xC4
4.1788286500,6,0x01,0x00
4.1793452000,6,0x70,0x01
4.1798643500,6,0x04,0x70
4.1803917500,6,0x80,0x04
4.1809075000,6,0x01,0x80
4.1814233500,6,0x73,0x01
4.1819425500,6,0xE4,0x73
4.1824842500,6,0x00,0xE4
4.1830003000,6,0x01,0x00
4.1835163500,6,0x89,0x01
4.1840351500,6,0x44,0x89
4.1845621500,6,0x80,0x44
4.1850774500,6,0x01,0x80
4.1855927000,6,0x80,0x01
4.1861109000,6,0xC4,0x80
4.1866513500,6,0x00,0xC4
4.1871666500,6,0x01,0x00
4.1876821500,6,0x90,0x01
4.1882007000,6,0x04,0x90
4.1887281500,6,0x80,0x04
4.1892440500,6,0x01,0x80
4.1897596000,6,0x93,0x01
4.1902779000,6,0xE4,0x93
4.1908186000,6,0x00,0xE4
4.1913345500,6,0x01,0x00
4.1918506000,6,0xA9,0x01
4.1923698000,6,0x44,0xA9
4.1928975500,6,0x80,0x44
4.1934138000,6,0x01,0x80
4.1939300000,6,0xA0,0x01
4.1944487500,6,0xC4,0xA0
4.1949900000,6,0x00,0xC4
4.1955063000,6,0x01,0x00
4.1960227500,6,0xB0,0x01
4.1965415500,6,0x04,0xB0
4.1970687500,6,0x80,0x04
4.1975841500,6,0x01,0x80
4.1980997000,6,0xB3,0x01
4.1986182500,6,0xE4,0xB3
4.1991592000,6,0x00,0xE4
4.1996747000,6,0x01,0x00
4.2001895500,6,0xC9,0x01
4.2007075000,6,0x44,0xC9
4.2012347500,6,0x80,0x44
4.2017501500,6,0x01,0x80
4.2022655500,6,0xC0,0x01
4.2029083000,7,0x10,0x03
4.2034489000,7,0x00,0x10
4.2039640500,7,0x07,0x00
4.2044797500,7,0x40,0x07
4.2049980500,7,0x12,0x40
4.2055253000,7,0x00,0x12
4.2060407500,7,0x07,0x00
4.2065562500,7,0x4F,0x07
4.2070744500,7,0x90,0x4F
4.2076153500,7,0x00,0x90
4.2081305500,7,0x07,0x00
4.2086457000,7,0xA5,0x07
4.2091637500,7,0x12,0xA5
4.2096915000,7,0x00,0x12
4.2102074000,7,0x07,0x00
4.2107224500,7,0x83,0x07
4.2112411000,7,0x10,0x83
4.2117823000,7,0x00,0x10
4.2122983000,7,0x07,0x00
4.2128143500,7,0xC0,0x07
4.2133324500,7,0x12,0xC0
4.2138597500,7,0x00,0x12
4.2143755000,7,0x07,0x00
4.2148914500,7,0xCF,0x07
4.2154104000,7,0x90,0xCF
4.2159516500,7,0x00,0x90
4.2164675000,7,0x08,0x00
4.2169833500,7,0x25,0x08
4.2175021000,7,0x12,0x25
4.2180297000,7,0x00,0x12
4.2185452500,7,0x08,0x00
4.2190602000,7,0x03,0x08
4.2195780500,7,0x10,0x03
4.2201190000,7,0x00,0x10
4.2206347500,7,0x08,0x00
4.2211506500,7,0x40,0x08
4.2216697500,7,0x12,0x40
4.2221976000,7,0x00,0x12
4.2227137500,7,0x08,0x00
4.2232292500,7,0x4D,0x08
4.2237476500,7,0x10,0x4D
4.2242884000,7,0x00,0x10
4.2248036500,7,0x08,0x00
4.2253191000,7,0xA5,0x08
4.2258375500,7,0x12,0xA5
4.2263651000,7,0x00,0x12
4.2268810500,7,0x08,0x00
4.2273973500,7,0x83,0x08
4.2279165500,7,0x10,0x83
4.2284581000,7,0x00,0x10
4.2289744000,7,0x08,0x00
4.2294905000,7,0xC0,0x08
4.2300096500,7,0x12,0xC0
4.2305376500,7,0x00,0x12
4.2310539000,7,0x08,0x00
4.2315700500,7,0xCF,0x08
4.2320889000,7,0x90,0xCF
4.2326297000,7,0x00,0x90
4.2331450000,7,0x09,0x00
4.2336602000,7,0x25,0x09
4.2341782500,7,0x12,0x25
4.2347054500,7,0x00,0x12
4.2352208500,7,0x09,0x00
4.2357361000,7,0x03,0x09
4.2362544500,8,0x10,0x03
4.2367957500,8,0x00,0x10
4.2373115500,8,0x09,0x00
4.2378274500,8,0x40,0x09
4.2383463500,8,0x12,0x40
4.2388742500,8,0x00,0x12
4.2393904500,8,0x09,0x00
4.2399067000,8,0x4F,0x09
4.2404261000,8,0x90,0x4F
4.2409680500,8,0x00,0x90
4.2414845000,8,0x09,0x00
4.2420010000,8,0xA5,0x09
4.2425202500,8,0x12,0xA5
4.2430482500,8,0x00,0x12
4.2435639500,8,0x09,0x00
4.2440801000,8,0x83,0x09
4.2445987500,8,0x10,0x83
4.2451397000,8,0x00,0x10
4.2456558500,8,0x09,0x00
4.2461716000,8,0xC0,0x09
4.2466903500,8,0x12,0xC0
4.2472175500,8,0x00,0x12
4.2477335500,8,0x09,0x00
4.2482494000,8,0xCF,0x09
4.2487680500,8,0x90,0xCF
4.2493092500,8,0x00,0x90
4.2498250500,8,0x0A,0x00
4.2503408500,8,0x25,0x0A
4.2508592000,8,0x12,0x25
4.2513866500,8,0x00,0x12
4.2519023500,8,0x0A,0x00
4.2524182000,8,0x03,0x0A
4.2529369500,8,0x10,0x03
4.2534781000,8,0x00,0x10
4.2539938000,8,0x0A,0x00
4.2545095500,8,0x40,0x0A
4.2550284000,8,0x12,0x40
4.2555560000,8,0x00,0x12
4.2560721500,8,0x0A,0x00
4.2565884000,8,0x4F,0x0A
4.2571076500,8,0x90,0x4F
4.2576483000,8,0x00,0x90
4.2581637500,8,0x0A,0x00
4.2586800000,8,0xA5,0x0A
4.2591995500,8,0x12,0xA5
4.2597278500,8,0x00,0x12
4.2602443000,8,0x0A,0x00
4.2607607500,8,0x83,0x0A
4.2612797500,8,0x10,0x83
4.2618211500,8,0x00,0x10
4.2623377500,8,0x0A,0x00
4.2628542500,8,0xC0,0x0A
4.2633735000,8,0x12,0xC0
4.2639014500,8,0x00,0x12
4.2644176000,8,0x0A,0x00
4.2649337500,8,0xCF,0x0A
4.2654526000,8,0x90,0xCF
4.2659938000,8,0x00,0x90
4.2665096000,8,0x0B,0x00
4.2670254500,8,0x25,0x0B
4.2675443500,8,0x12,0x25
4.2680718500,8,0x00,0x12
4.2685876000,8,0x0B,0x00
4.2691035000,8,0x03,0x0B
4.2696223500,8,0x10,0x03
4.2701635000,8,0x00,0x10
4.2706792500,8,0x0B,0x00
4.2711945000,8,0x40,0x0B
4.2717126500,8,0x12,0x40
4.2722396500,8,0x00,0x12
4.2727559000,8,0x0B,0x00
4.2732714500,8,0x4F,0x0B
4.2737900500,8,0x90,0x4F
4.2743317500,8,0x00,0x90
4.2748474000,8,0x0B,0x00
4.2753633000,8,0xA5,0x0B
4.2758819000,8,0x12,0xA5
4.2764090500,8,0x00,0x12
4.2769256000,8,0x0B,0x00
4.2774420500,8,0x83,0x0B
4.2779614500,8,0x10,0x83
4.2785030000,8,0x00,0x10
4.2790192500,8,0x0B,0x00
4.2795355000,8,0xC0,0x0B
4.2800538500,8,0x12,0xC0
4.2805810500,8,0x00,0x12
4.2810965000,8,0x0B,0x00
4.2816119000,8,0xCF,0x0B
4.2821301000,8,0x90,0xCF
4.2826707000,8,0x00,0x90
4.2831861500,8,0x0C,0x00
4.2837017500,8,0x25,0x0C
4.2842202500,8,0x12,0x25
4.2847473000,8,0x00,0x12
4.2852629500,8,0x0C,0x00
4.2857789000,8,0x03,0x0C
4.2862978000,8,0x10,0x03
4.2868389000,8,0x00,0x10
4.2873543500,8,0x0C,0x00
4.2878697500,8,0x40,0x0C
4.2883880500,8,0x12,0x40
4.2889155000,8,0x00,0x12
4.2894314000,8,0x0C,0x00
4.2899475500,8,0x4F,0x0C
4.2904665000,8,0x90,0x4F
4.2910080500,8,0x00,0x90
4.2915245500,8,0x0C,0x00
4.2920410500,8,0xA5,0x0C
4.2925606500,8,0x12,0xA5
4.2930889500,8,0x00,0x12
4.2936053500,8,0x0C,0x00
4.2941216500,8,0x83,0x0C
4.2946412000,8,0x10,0x83
4.2951828000,8,0x00,0x10
4.2956987500,8,0x0C,0x00
4.2962151500,8,0xC0,0x0C
4.2967343500,8,0x12,0xC0
4.2972623000,8,0x00,0x12
4.2977783500,8,0x0C,0x00
4.2982939000,8,0xCF,0x0C
4.2988122500,8,0x90,0xCF
4.2993529500,8,0x00,0x90
4.2998687000,8,0x0D,0x00
4.3003845000,8,0x09,0x0D
4.3009034500,8,0x12,0x09
4.3014310000,8,0x00,0x12
4.3019469500,8,0x0D,0x00
4.3028571500,9,0x14,0x41
4.3033983000,9,0x00,0x14
4.3039142000,9,0x03,0x00
4.3044298000,9,0x5B,0x03
4.3049482500,9,0xE4,0x5B
4.3054761500,9,0x80,0xE4
4.3059926500,9,0x03,0x80
4.3065088500,9,0x51,0x03
4.3070279500,9,0xF4,0x51
4.3075690000,9,0x00,0xF4
4.3080850000,9,0x03,0x00
4.3085998500,9,0x6E,0x03
4.3091181000,9,0xF4,0x6E
4.3096450500,9,0x80,0xF4
4.3101607000,9,0x03,0x80
4.3106762500,9,0x6C,0x03
4.3111949000,9,0xF4,0x6C
4.3117363500,9,0x00,0xF4
4.3122524000,9,0x03,0x00
4.3127683500,9,0x7E,0x03
4.3132873000,9,0x04,0x7E
4.3138148000,9,0x80,0x04
4.3143306000,9,0x03,0x80
4.3148461500,9,0x7D,0x03
4.3157803000,11,0x00,0x51
4.3162960000,11,0x00,0x00
4.3168116500,11,0xE2,0x00
4.3173301000,11,0xFD,0xE2
4.3178574500,12,0x20,0xFD
4.3183730500,12,0x00,0x20
4.3190755500,13,0x1B,0x07
4.3197182500,14,0x20,0x6F
4.3202593500,14,0x00,0x20
4.3207749000,14,0x1C,0x00
4.3212906500,14,0xDF,0x1C
4.3220251000,15,0x20,0xFD
4.3225409000,15,0x00,0x20
4.3230566500,15,0xE7,0x00
4.3235755500,15,0x35,0xE7
4.3241172000,15,0x00,0x35
4.3246335500,15,0x00,0x00
4.3251495500,15,0xEA,0x00
4.3256681500,15,0x51,0xEA
4.3261954500,15,0x20,0x51
4.3267116500,15,0x00,0x20
4.3272278000,15,0xE8,0x00
4.3277471000,15,0x39,0xE8
4.3282888500,15,0x00,0x39
4.3288050500,15,0x00,0x00
4.3293209500,15,0xEC,0x00
4.3298398500,15,0x01,0xEC
4.3303668500,15,0x20,0x01
4.3308818000,15,0x00,0x20
4.3313965500,15,0xED,0x00
4.3319142500,15,0x01,0xED
4.3324539000,15,0x00,0x01
4.3329689500,15,0x00,0x00
4.3334843000,15,0xF2,0x00
4.3340027500,15,0x51,0xF2
4.3345298000,15,0x20,0x51
4.3350450000,15,0x00,0x20
4.3355602500,15,0xF0,0x00
4.3360779000,15,0x31,0xF0
4.3366179000,15,0x00,0x31
4.3371326000,15,0x00,0x00
4.3376469500,15,0xF4,0x00
4.3381644000,15,0x01,0xF4
4.3386909500,15,0x20,0x01
4.3392065000,15,0x00,0x20
4.3397224500,15,0xF5,0x00
4.3402413500,15,0x59,0xF5
4.3407827500,16,0x00,0x59
4.3412984000,16,0x00,0x00
4.3418139000,16,0xFA,0x00
4.3423319500,16,0x51,0xFA
4.3428595500,16,0x20,0x51
4.3433757500,16,0x00,0x20
4.3438920000,16,0xF8,0x00
4.3444108500,16,0x31,0xF8
4.3449514000,16,0x00,0x31
4.3454669500,16,0x00,0x00
4.3459828500,16,0xFC,0x00
4.3465016000,16,0x01,0xFC
4.3470292000,16,0x20,0x01
4.3475451000,16,0x00,0x20
4.3480608500,16,0xFC,0x00
4.3485789000,16,0x01,0xFC
4.3491114500,16,0x30,0x01
4.3496460500,16,0x0C,0x30
4.3501612000,16,0xFC,0x0C
4.3506796500,16,0x01,0xFC
4.3555949000,16,0x00,0x01
4.3561103500,16,0x01,0x00
4.3566263000,16,0x02,0x01
4.3571456000,16,0x69,0x02
4.3576732000,16,0x20,0x69
4.3581891500,16,0x01,0x20
4.3587051500,16,0x01,0x01
4.3592243000,17,0x41,0x01
4.3597659500,17,0x00,0x41
4.3602823500,17,0x01,0x00
4.3607988500,17,0x06,0x01
4.3613183000,17,0x61,0x06
4.3618466500,17,0x20,0x61
4.3623631000,17,0x01,0x20
4.3628794000,17,0x05,0x01
4.3633983000,17,0x61,0x05
4.3639389000,17,0x00,0x61
4.3644547000,17,0x01,0x00
4.3649703500,17,0x0B,0x01
4.3654887000,17,0xBD,0x0B
4.3660162500,17,0x20,0xBD
4.3665316500,17,0x01,0x20
4.3670468500,17,0x08,0x01
4.3675648000,17,0xBD,0x08
4.3681051000,17,0x00,0xBD
4.3686208000,17,0x01,0x00
4.3691366500,17,0x0F,0x01
4.3696555500,17,0x99,0x0F
4.3701831500,17,0x20,0x99
4.3706991500,17,0x01,0x20
4.3712151000,17,0x0E,0x01
4.3717342000,17,0x25,0x0E
4.3722755000,17,0x00,0x25
4.3727917000,17,0x01,0x00
4.3733078500,17,0x13,0x01
4.3738271500,17,0x85,0x13
4.3743552000,17,0x20,0x85
4.3748716500,17,0x01,0x20
4.3753884000,17,0x12,0x01
4.3759078000,17,0x61,0x12
4.3764495500,17,0x00,0x61
4.3769662500,17,0x01,0x00
4.3774829000,17,0x15,0x01
4.3780023500,18,0x41,0x15
4.3785306000,18,0x20,0x41
4.3790470000,18,0x01,0x20
4.3795636000,18,0x14,0x01
4.3800830000,18,0x85,0x14
4.3806246000,18,0x00,0x85
4.3811397500,18,0x01,0x00
4.3816550500,18,0x19,0x01
4.3821738000,19,0x01,0x19
4.3827011000,20,0x20,0x01
4.3832164000,20,0x01,0x20
4.3837318500,20,0x1A,0x01
4.3842505500,20,0x01,0x1A
4.3847915500,20,0x00,0x01
4.3853075500,20,0x01,0x00
4.3858237500,21,0x1D,0x01
4.3863425000,21,0x01,0x1D
4.3868702500,22,0x20,0x01
4.3873861500,22,0x01,0x20
4.3879019000,22,0x1E,0x01
4.3884206500,22,0x41,0x1E
4.3889619000,22,0x00,0x41
4.3894773500,22,0x01,0x00
4.3899930500,22,0x23,0x01
4.3905119000,22,0xDD,0x23
4.3910396500,22,0x20,0xDD
4.3915558000,22,0x01,0x20
4.3920717000,22,0x23,0x01
4.3925900500,22,0x85,0x23
4.3931307500,22,0x00,0x85
4.3936471000,22,0x01,0x00
4.3941636500,22,0x27,0x01
4.3946831000,23,0x01,0x27
4.3952110500,23,0x20,0x01
4.3957273500,23,0x01,0x20
4.3962435500,23,0x24,0x01
4.3967626500,23,0x01,0x24
4.3973041000,23,0x00,0x01
4.3978202000,23,0x01,0x00
4.3983360500,23,0x28,0x01
4.3988544000,23,0x01,0x28
4.3993812500,23,0x20,0x01
4.3998967500,23,0x01,0x20
4.4004126000,23,0x28,0x01
4.4009311000,23,0x01,0x28
4.4014713000,23,0x00,0x01
4.4019864500,23,0x01,0x00
4.4025014500,23,0x2E,0x01
4.4030202000,23,0x69,0x2E
4.4037345000,24,0x00,0x49
4.4042502500,24,0x09,0x00
4.4047661000,24,0x6B,0x09
4.4052850000,24,0x08,0x6B
4.4058264500,24,0x00,0x08
4.4063425500,24,0x09,0x00
4.4068589500,24,0x9D,0x09
4.4073782500,24,0xE9,0x9D
4.4079062500,24,0x00,0xE9
4.4084221000,24,0x09,0x00
4.4093320500,25,0x7A,0x61
4.4098737500,25,0x00,0x7A
4.4103894500,25,0x02,0x00
4.4109055500,25,0x6F,0x02
4.4114249000,25,0x32,0x6F
4.4119530000,25,0x40,0x32
4.4124686000,25,0x02,0x40
4.4129849500,25,0x6C,0x02
4.4135043500,25,0x4A,0x6C
4.4140460500,25,0x00,0x4A
4.4145620000,25,0x02,0x00
4.4150780000,25,0x77,0x02
4.4155972000,25,0x0A,0x77
4.4161249000,25,0x40,0x0A
4.4166408500,25,0x02,0x40
4.4171565500,25,0x74,0x02
4.4176755000,25,0xC2,0x74
4.4182168500,25,0x00,0xC2
4.4187329500,25,0x02,0x00
4.4192481000,25,0x7A,0x02
4.4197667000,25,0x82,0x7A
4.4202934500,25,0x40,0x82
4.4208085500,25,0x02,0x40
4.4213235000,25,0x79,0x02
4.4218423000,25,0x0A,0x79
4.4223836500,25,0x00,0x0A
4.4228998500,25,0x02,0x00
4.4234160000,25,0x82,0x02
4.4239353000,25,0x02,0x82
4.4244634000,25,0x40,0x02
4.4249796000,25,0x02,0x40
4.4254959500,25,0x84,0x02
4.4260153500,25,0x02,0x84
4.4265571500,25,0x00,0x02
4.4270736000,25,0x02,0x00
4.4275899500,25,0x8A,0x02
4.4281093000,25,0x02,0x8A
4.4286373500,25,0x40,0x02
4.4291537500,25,0x02,0x40
4.4296700000,25,0x8C,0x02
4.4301889000,25,0x82,0x8C
4.4307298500,25,0x00,0x82
4.4316980000,26,0x4B,0x01
4.4322170500,26,0xDD,0x4B
4.4327447000,26,0x20,0xDD
4.4332603000,26,0x01,0x20
4.4337753000,26,0x4B,0x01
4.4342934000,26,0x85,0x4B
4.4348339000,26,0x00,0x85
4.4353496500,26,0x01,0x00
4.4358654500,26,0x4F,0x01
4.4363844500,27,0x01,0x4F
4.4369122000,27,0x20,0x01
4.4374282000,27,0x01,0x20
4.4379444500,27,0x4C,0x01
4.4384630000,27,0x01,0x4C
4.4390033000,27,0x00,0x01
4.4395192000,27,0x01,0x00
4.4400350500,27,0x50,0x01
4.4405535000,27,0x01,0x50
4.4410807500,27,0x20,0x01
4.4415963000,27,0x01,0x20
4.4421116000,27,0x50,0x01
4.4426309000,27,0x01,0x50
4.4431726000,27,0x00,0x01
4.4436886500,27,0x01,0x00
4.4442045500,27,0x57,0x01
4.4447235500,28,0x3D,0x57
4.4452513500,29,0x20,0x3D
4.4457672500,29,0x01,0x20
4.4462834000,29,0x57,0x01
4.4468027000,29,0xAD,0x57
4.4473442500,29,0x00,0xAD
4.4478604000,29,0x01,0x00
4.4483765500,29,0x5A,0x01
4.4488954500,29,0x51,0x5A
4.4494232500,29,0x20,0x51
4.4499389500,29,0x01,0x20
4.4504548000,29,0x5B,0x01
4.4509736000,29,0xE1,0x5B
4.4515146000,29,0x00,0xE1
4.4520298500,29,0x01,0x00
4.4525452000,29,0x5F,0x01
4.4530633500,29,0x3D,0x5F
4.4535902500,30,0x20,0x3D
4.4541055500,30,0x01,0x20
4.4546206000,30,0x5F,0x01
4.4551396500,30,0xFD,0x5F
4.4556811500,30,0x00,0xFD
4.4561967500,30,0x01,0x00
4.4567121500,30,0x63,0x01
4.4572309500,30,0xFD,0x63
4.4577583000,30,0x20,0xFD
4.4582743000,30,0x01,0x20
4.4587905000,30,0x63,0x01
4.4593097500,30,0xFD,0x63
4.4598513000,30,0x00,0xFD
4.4603678500,30,0x01,0x00
4.4608844500,30,0x67,0x01
4.4614039000,30,0xFD,0x67
4.4619321500,30,0x20,0xFD
4.4624485500,30,0x01,0x20
4.4629647500,30,0x67,0x01
4.4634834000,30,0xFD,0x67
4.4640245500,30,0x00,0xFD
4.4645404500,30,0x01,0x00
4.4650560500,30,0x6B,0x01
4.4655746500,30,0xFD,0x6B
4.4661020000,30,0x20,0xFD
4.4666177000,30,0x01,0x20
4.4671330500,30,0x6B,0x01
4.4676513000,30,0xFD,0x6B
4.4681921500,30,0x00,0xFD
4.4687077000,30,0x01,0x00
4.4692232500,30,0x6F,0x01
4.4697412500,30,0xFD,0x6F
4.4702675500,30,0x20,0xFD
4.4707824500,30,0x01,0x20
4.4712975000,30,0x6F,0x01
4.4718154500,30,0xFD,0x6F
4.4723568500,30,0x00,0xFD
4.4728728000,30,0x01,0x00
4.4733887500,30,0x73,0x01
4.4739072000,30,0xFD,0x73
4.4744342500,30,0x20,0xFD
4.4749497500,30,0x01,0x20
4.4754654500,30,0x73,0x01
4.4759849000,30,0xFD,0x73
4.4765261500,30,0x00,0xFD
4.4770413500,30,0x01,0x00
4.4775575000,30,0x77,0x01
4.4780766500,30,0xFD,0x77
4.4786046000,30,0x20,0xFD
4.4791208500,30,0x01,0x20
4.4796370000,30,0x77,0x01
4.4801558500,30,0xFD,0x77
4.4806974500,30,0x00,0xFD
4.4812135500,30,0x01,0x00
4.4817294000,30,0x7B,0x01
4.4822482500,30,0xFD,0x7B
4.4827759000,30,0x20,0xFD
4.4832921000,30,0x01,0x20
4.4838080000,30,0x7B,0x01
4.4843267500,30,0xFD,0x7B
4.4848672500,30,0x00,0xFD
4.4853823000,30,0x01,0x00
4.4858979500,30,0x7F,0x01
4.4864166000,30,0xFD,0x7F
4.4869442500,30,0x20,0xFD
4.4874603000,30,0x01,0x20
4.4879760500,30,0x7F,0x01
4.4884945000,30,0xFD,0x7F
4.4890356000,30,0x00,0xFD
4.4895513000,30,0x01,0x00
4.4900671500,30,0x83,0x01
4.4905854500,30,0xFD,0x83
4.4911130500,30,0x20,0xFD
4.4916292500,30,0x01,0x20
4.4921455000,30,0x83,0x01
4.4926645500,30,0xFD,0x83
4.4932055000,30,0x00,0xFD
4.4937217000,30,0x01,0x00
4.4942381500,30,0x87,0x01
4.4947576000,30,0xFD,0x87
4.4952858000,30,0x20,0xFD
4.4958022000,30,0x01,0x20
4.4963184000,30,0x87,0x01
4.4968372500,30,0xFD,0x87
4.4973784500,30,0x00,0xFD
4.4978938500,30,0x01,0x00
4.4984095500,30,0x8B,0x01
4.4989282500,30,0xFD,0x8B
4.4994556000,30,0x20,0xFD
4.4999714500,30,0x01,0x20
4.5004874000,30,0x8B,0x01
4.5010064500,30,0xFD,0x8B
4.5015477500,30,0x00,0xFD
4.5020638000,30,0x01,0x00
4.5025794500,30,0x8F,0x01
4.5030976500,30,0xFD,0x8F
4.5036244500,30,0x20,0xFD
4.5041396500,30,0x01,0x20
4.5046548500,30,0x8F,0x01
4.5051738000,30,0xFD,0x8F
4.5057151500,30,0x00,0xFD
4.5062314000,30,0x01,0x00
4.5067476000,30,0x93,0x01
4.5072668000,30,0xFD,0x93
4.5077948500,30,0x20,0xFD
4.5083112000,30,0x01,0x20
4.5088274000,30,0x93,0x01
4.5093459500,30,0xFD,0x93
4.5098877500,30,0x00,0xFD
4.5104041500,30,0x01,0x00
4.5109207000,30,0x97,0x01
4.5114400000,30,0xFD,0x97
4.5119678000,30,0x20,0xFD
4.5124840000,30,0x01,0x20
4.5130618000,31,0x2F,0x03
4.5135803500,31,0xFA,0x2F
4.5141220500,31,0x00,0xFA
4.5146382500,31,0x03,0x00
4.5151543000,31,0x37,0x03
4.5156732000,31,0xFA,0x37
4.5162009000,31,0x40,0xFA
4.5167170000,31,0x03,0x40
4.5172329500,31,0x37,0x03
4.5177519500,31,0xFA,0x37
4.5182930500,31,0x00,0xFA
4.5188088500,31,0x03,0x00
4.5193247500,31,0x3F,0x03
4.5198438000,31,0xFA,0x3F
4.5203714000,31,0x40,0xFA
4.5208873500,31,0x03,0x40
4.5214033500,31,0x3F,0x03
4.5219222500,31,0xFA,0x3F
4.5224637500,31,0x00,0xFA
4.5229798500,31,0x03,0x00
4.5234960500,31,0x47,0x03
4.5240150500,31,0xFA,0x47
4.5245430500,31,0x40,0xFA
4.5250592000,31,0x03,0x40
4.5255753000,31,0x47,0x03
4.5260943500,31,0xFA,0x47
4.5266352500,31,0x00,0xFA
4.5271507500,31,0x03,0x00
4.5276661500,31,0x4F,0x03
4.5281856500,31,0xFA,0x4F
4.5287136500,31,0x40,0xFA
4.5292298000,31,0x03,0x40
4.5297459500,31,0x4F,0x03
4.5302650500,31,0xFA,0x4F
4.5308064500,31,0x00,0xFA
4.5313223500,31,0x03,0x00
4.5318379500,31,0x57,0x03
4.5323565500,31,0xFA,0x57
4.5328840000,31,0x40,0xFA
4.5333996500,31,0x03,0x40
4.5339156500,31,0x57,0x03
4.5344343000,31,0xFA,0x57
4.5349754000,31,0x00,0xFA
4.5354912000,31,0x03,0x00
4.5360071500,31,0x5F,0x03
4.5365259000,31,0xFA,0x5F
4.5370531500,31,0x40,0xFA
4.5375690000,31,0x03,0x40
4.5380848500,31,0x5F,0x03
4.5386036500,31,0xFA,0x5F
4.5391450000,31,0x00,0xFA
4.5396610000,31,0x03,0x00
4.5401768000,31,0x67,0x03
4.5406953500,31,0xFA,0x67
4.5412234000,31,0x40,0xFA
4.5417395000,31,0x03,0x40
4.5422554500,31,0x67,0x03
4.5427743000,31,0xFA,0x67
4.5433156500,31,0x00,0xFA
4.5438315500,31,0x03,0x00
4.5443471500,31,0x6F,0x03
4.5448661000,31,0xFA,0x6F
4.5453941000,31,0x40,0xFA
4.5459103500,31,0x03,0x40
4.5464259500,31,0x6F,0x03
4.5469438000,31,0xFA,0x6F
4.5474852500,31,0x00,0xFA
4.5480014000,31,0x03,0x00
4.5485174500,31,0x77,0x03
4.5490363000,31,0xFA,0x77
4.5495640000,31,0x40,0xFA
4.5500798500,31,0x03,0x40
4.5505958000,31,0x77,0x03
4.5515919500,32,0x00,0xFD
4.5521070000,32,0x01,0x00
4.5526228000,32,0xBF,0x01
4.5531416500,32,0xFD,0xBF
4.5536690500,32,0x20,0xFD
4.5541844000,32,0x01,0x20
4.5547000500,32,0xBF,0x01
4.5552188500,32,0xFD,0xBF
4.5557598000,32,0x00,0xFD
4.5562759000,32,0x01,0x00
4.5567912500,32,0xC3,0x01
4.5573097500,32,0xFD,0xC3
4.5578375500,32,0x20,0xFD
4.5583537000,32,0x01,0x20
4.5588698500,32,0xC3,0x01
4.5593890500,32,0xFD,0xC3
4.5599306500,32,0x00,0xFD
4.5604469000,32,0x01,0x00
4.5609634500,32,0xC7,0x01
4.5614827000,32,0xFD,0xC7
4.5620099500,32,0x20,0xFD
4.5625262000,32,0x01,0x20
4.5630425000,32,0xC7,0x01
4.5635618000,32,0xFD,0xC7
4.5641029500,32,0x00,0xFD
4.5646186000,32,0x01,0x00
4.5651342000,32,0xCB,0x01
4.5656527000,32,0xFD,0xCB
4.5661800000,32,0x20,0xFD
4.5666956000,32,0x01,0x20
4.5672113000,32,0xCB,0x01
4.5677301500,32,0xFD,0xCB
4.5682713500,32,0x00,0xFD
4.5687871500,32,0x01,0x00
4.5693026500,32,0xCF,0x01
4.5698213000,32,0xFD,0xCF
4.5703487000,32,0x20,0xFD
4.5708645000,32,0x01,0x20
4.5713796500,32,0xCF,0x01
4.5718982000,32,0xFD,0xCF
4.5724395000,32,0x00,0xFD
4.5729551500,32,0x01,0x00
4.5734710500,32,0xD3,0x01
4.5739901500,32,0xFD,0xD3
4.5745179000,32,0x20,0xFD
4.5750337000,32,0x01,0x20
4.5755495000,32,0xD3,0x01
4.5760685000,32,0xFD,0xD3
4.5766102500,32,0x00,0xFD
4.5771264500,32,0x01,0x00
4.5776427000,32,0xD7,0x01
4.5781618500,32,0xFD,0xD7
4.5786900000,32,0x20,0xFD
4.5792063500,32,0x01,0x20
4.5797225000,32,0xD7,0x01
4.5802417000,32,0xFD,0xD7
4.5807831000,32,0x00,0xFD
4.5812991500,32,0x01,0x00
4.5818153000,32,0xDB,0x01
4.5823344500,32,0xFD,0xDB
4.5828623500,32,0x20,0xFD
4.5833782500,32,0x01,0x20
4.5838942500,32,0xDB,0x01
4.5844129500,32,0xFD,0xDB
4.5849537000,32,0x00,0xFD
4.5854691500,32,0x01,0x00
4.5859845500,32,0xDF,0x01
4.5865027000,32,0xFD,0xDF
4.5870291500,32,0x20,0xFD
4.5875442000,32,0x01,0x20
4.5880595500,32,0xDF,0x01
4.5885779000,32,0xFD,0xDF
4.5891189500,32,0x00,0xFD
4.5896348500,32,0x01,0x00
4.5901510000,32,0xE3,0x01
4.5906698500,32,0xFD,0xE3
4.5911969500,32,0x20,0xFD
4.5917124000,32,0x01,0x20
4.5922277000,32,0xE3,0x01
4.5927456500,32,0xFD,0xE3
4.5932866500,32,0x00,0xFD
4.5938025000,32,0x01,0x00
4.5943188000,32,0xE7,0x01
4.5948378500,32,0xFD,0xE7
4.5953660000,32,0x20,0xFD
4.5958823000,32,0x01,0x20
4.5963986500,32,0xE7,0x01
4.5969178500,32,0xFD,0xE7
4.5974594500,32,0x00,0xFD
4.5979754500,32,0x01,0x00
4.5984912000,32,0xEB,0x01
4.5990094000,32,0xFD,0xEB
4.5995363000,32,0x20,0xFD
4.6000515500,32,0x01,0x20
4.6005676000,32,0xEB,0x01
4.6010862500,32,0xFD,0xEB
4.6016274000,32,0x00,0xFD
4.6021427500,32,0x01,0x00
4.6026583000,32,0xEF,0x01
4.6031772500,32,0xFD,0xEF
4.6037048500,32,0x20,0xFD
4.6042208500,32,0x01,0x20
4.6047368500,32,0xEF,0x01
4.6052555000,32,0xFD,0xEF
4.6057961500,32,0x00,0xFD
4.6063115500,32,0x01,0x00
4.6068266000,32,0xF3,0x01
4.6073449500,32,0xFD,0xF3
4.6078728500,32,0x20,0xFD
4.6083892000,32,0x01,0x20
4.6089053500,32,0xF3,0x01
4.6094239500,32,0xFD,0xF3
4.6099656000,32,0x00,0xFD
4.6104819500,32,0x01,0x00
4.6109983500,32,0xF7,0x01
4.6115177500,32,0xFD,0xF7
4.6120458000,32,0x20,0xFD
4.6125621500,32,0x01,0x20
4.6130784000,32,0xF7,0x01
4.6135976500,32,0xFD,0xF7
4.6141393500,32,0x00,0xFD
4.6146554500,32,0x01,0x00
4.6151715000,32,0xFB,0x01
4.6156902500,32,0xFD,0xFB
4.6162176000,32,0x20,0xFD
4.6167333000,32,0x01,0x20
4.6172489000,32,0xFB,0x01
4.6177674000,32,0xFD,0xFB
4.6183084000,32,0x00,0xFD
4.6188243500,32,0x01,0x00
4.6193399500,32,0xFF,0x01
4.6198589000,32,0xFD,0xFF
4.6203865500,32,0x20,0xFD
4.6209020000,32,0x01,0x20
4.6214178000,32,0xFF,0x01
4.6219363000,32,0xFD,0xFF
4.6224878500,32,0x30,0xFD
4.6230227000,32,0x1D,0x30
4.6235385000,32,0xFC,0x1D
